 (000.000000)  can0  100   [8]  00 00 00 00 00 00 00 00
 (000.010017)  can0  100   [8]  00 00 00 00 00 00 01 01
 (000.020003)  can0  100   [8]  00 00 00 00 00 00 02 02
 (000.029975)  can0  100   [8]  00 00 00 00 00 00 03 03
 (000.039976)  can0  100   [8]  00 00 00 00 00 00 04 04
 (000.049997)  can0  100   [8]  00 00 00 00 00 00 05 05
 (000.059992)  can0  100   [8]  00 00 00 00 00 00 06 06
 (000.069992)  can0  100   [8]  00 00 00 00 00 00 07 07
 (000.079990)  can0  100   [8]  00 00 00 00 00 00 08 08
 (000.089985)  can0  100   [8]  00 00 00 00 00 00 09 09
 (000.090201)  can0  101   [8]  38 31 3C C8 00 00 00 FD
 (000.099990)  can0  100   [8]  00 00 00 00 00 00 0A 0A
 (000.109967)  can0  100   [8]  00 00 00 00 00 00 0B 0B
 (000.119994)  can0  100   [8]  00 00 00 00 00 00 0C 0C
 (000.129990)  can0  100   [8]  00 00 00 00 00 00 0D 0D
 (000.139968)  can0  100   [8]  00 00 00 00 00 00 0E 0E
 (000.149995)  can0  100   [8]  00 00 00 00 00 00 0F 0F
 (000.159987)  can0  100   [8]  00 00 00 00 00 00 10 10
 (000.169985)  can0  100   [8]  00 00 00 00 00 00 11 11
 (000.179997)  can0  100   [8]  00 00 00 00 00 00 12 12
 (000.189988)  can0  100   [8]  00 00 00 00 00 00 13 13
 (000.190192)  can0  101   [8]  38 31 3C C8 00 00 01 FC
 (000.199987)  can0  100   [8]  00 00 00 00 00 00 14 14
 (000.209990)  can0  100   [8]  00 00 00 00 00 00 15 15
 (000.219983)  can0  100   [8]  00 00 00 00 00 00 16 16
 (000.229980)  can0  100   [8]  00 00 00 00 00 00 17 17
 (000.239967)  can0  100   [8]  00 00 00 00 00 00 18 18
 (000.249996)  can0  100   [8]  00 00 00 00 00 00 19 19
 (000.259982)  can0  100   [8]  00 00 00 00 00 00 1A 1A
 (000.269984)  can0  100   [8]  00 00 00 00 00 00 1B 1B
 (000.279984)  can0  100   [8]  00 00 00 00 00 00 1C 1C
 (000.289977)  can0  100   [8]  00 00 00 00 00 00 1D 1D
 (000.290192)  can0  101   [8]  38 31 3C C8 00 00 02 FF
 (000.299979)  can0  100   [8]  00 00 00 00 00 00 1E 1E
 (000.309984)  can0  100   [8]  00 00 00 00 00 00 1F 1F
 (000.319984)  can0  100   [8]  00 00 00 00 00 00 20 20
 (000.329977)  can0  100   [8]  00 00 00 00 00 00 21 21
 (000.339965)  can0  100   [8]  00 00 00 00 00 00 22 22
 (000.349960)  can0  100   [8]  00 00 00 00 00 00 23 23
 (000.359987)  can0  100   [8]  00 00 00 00 00 00 24 24
 (000.369981)  can0  100   [8]  00 00 00 00 00 00 25 25
 (000.379998)  can0  100   [8]  00 00 00 00 00 00 26 26
 (000.389980)  can0  100   [8]  00 00 00 00 00 00 27 27
 (000.390193)  can0  101   [8]  38 31 3C C8 00 00 03 FE
 (000.399984)  can0  100   [8]  00 00 00 00 00 00 28 28
 (000.409978)  can0  100   [8]  00 00 00 00 00 00 29 29
 (000.419981)  can0  100   [8]  00 00 00 00 00 00 2A 2A
 (000.429978)  can0  100   [8]  00 00 00 00 00 00 2B 2B
 (000.439961)  can0  100   [8]  00 00 00 00 00 00 2C 2C
 (000.449982)  can0  100   [8]  00 00 00 00 00 00 2D 2D
 (000.459977)  can0  100   [8]  00 00 00 00 00 00 2E 2E
 (000.469978)  can0  100   [8]  00 00 00 00 00 00 2F 2F
 (000.479981)  can0  100   [8]  00 00 00 00 00 00 30 30
 (000.489979)  can0  100   [8]  00 00 00 00 00 00 31 31
 (000.490192)  can0  101   [8]  38 31 3C C8 00 00 04 F9
 (000.499974)  can0  100   [8]  00 00 00 00 00 00 32 32
 (000.509979)  can0  100   [8]  00 00 00 00 00 00 33 33
 (000.519974)  can0  100   [8]  00 00 00 00 00 00 34 34
 (000.529980)  can0  100   [8]  00 00 00 00 00 00 35 35
 (000.539957)  can0  100   [8]  00 00 00 00 00 00 36 36
 (000.549978)  can0  100   [8]  00 00 00 00 00 00 37 37
 (000.559983)  can0  100   [8]  00 00 00 00 00 00 38 38
 (000.569974)  can0  100   [8]  00 00 00 00 00 00 39 39
 (000.579975)  can0  100   [8]  00 00 00 00 00 00 3A 3A
 (000.589957)  can0  100   [8]  00 00 00 00 00 00 3B 3B
 (000.590185)  can0  101   [8]  38 31 3C C8 00 00 05 F8
 (000.599976)  can0  100   [8]  00 00 00 00 00 00 3C 3C
 (000.609977)  can0  100   [8]  00 00 00 00 00 00 3D 3D
 (000.619978)  can0  100   [8]  00 00 00 00 00 00 3E 3E
 (000.629981)  can0  100   [8]  00 00 00 00 00 00 3F 3F
 (000.639961)  can0  100   [8]  00 00 00 00 00 00 40 40
 (000.649976)  can0  100   [8]  00 00 00 00 00 00 41 41
 (000.659972)  can0  100   [8]  00 00 00 00 00 00 42 42
 (000.669973)  can0  100   [8]  00 00 00 00 00 00 43 43
 (000.679972)  can0  100   [8]  00 00 00 00 00 00 44 44
 (000.689971)  can0  100   [8]  00 00 00 00 00 00 45 45
 (000.690181)  can0  101   [8]  38 31 3C C8 00 00 06 FB
 (000.699970)  can0  100   [8]  00 00 00 00 00 00 46 46
 (000.709969)  can0  100   [8]  00 00 00 00 00 00 47 47
 (000.719968)  can0  100   [8]  00 00 00 00 00 00 48 48
 (000.729967)  can0  100   [8]  00 00 00 00 00 00 49 49
 (000.739947)  can0  100   [8]  00 00 00 00 00 00 4A 4A
 (000.749971)  can0  100   [8]  00 00 00 00 00 00 4B 4B
 (000.759976)  can0  100   [8]  00 00 00 00 00 00 4C 4C
 (000.769968)  can0  100   [8]  00 00 00 00 00 00 4D 4D
 (000.779969)  can0  100   [8]  00 00 00 00 00 00 4E 4E
 (000.789972)  can0  100   [8]  00 00 00 00 00 00 4F 4F
 (000.790182)  can0  101   [8]  38 31 3C C8 00 00 07 FA
 (000.799971)  can0  100   [8]  00 00 00 00 00 00 50 50
 (000.809966)  can0  100   [8]  00 00 00 00 00 00 51 51
 (000.819967)  can0  100   [8]  00 00 00 00 00 00 52 52
 (000.829951)  can0  100   [8]  00 00 00 00 00 00 53 53
 (000.839951)  can0  100   [8]  00 00 00 00 00 00 54 54
 (000.849969)  can0  100   [8]  00 00 00 00 00 00 55 55
 (000.859983)  can0  100   [8]  00 00 00 00 00 00 56 56
 (000.869964)  can0  100   [8]  00 00 00 00 00 00 57 57
 (000.879969)  can0  100   [8]  00 00 00 00 00 00 58 58
 (000.889969)  can0  100   [8]  00 00 00 00 00 00 59 59
 (000.890175)  can0  101   [8]  38 31 3C C8 00 00 08 F5
 (000.899966)  can0  100   [8]  00 00 00 00 00 00 5A 5A
 (000.909965)  can0  100   [8]  00 00 00 00 00 00 5B 5B
 (000.919962)  can0  100   [8]  00 00 00 00 00 00 5C 5C
 (000.929970)  can0  100   [8]  00 00 00 00 00 00 5D 5D
 (000.939946)  can0  100   [8]  00 00 00 00 00 00 5E 5E
 (000.949970)  can0  100   [8]  00 00 00 00 00 00 5F 5F
 (000.959973)  can0  100   [8]  00 00 00 00 00 00 60 60
 (000.969962)  can0  100   [8]  00 00 00 00 00 00 61 61
 (000.979966)  can0  100   [8]  00 00 00 00 00 00 62 62
 (000.989962)  can0  100   [8]  00 00 00 00 00 00 63 63
 (000.990170)  can0  101   [8]  38 31 3C C8 00 00 09 F4
 (000.990409)  can0  102   [8]  87 D6 12 01 00 00 00 42
 (000.999963)  can0  100   [8]  00 00 00 00 00 00 64 64
 (001.009961)  can0  100   [8]  00 00 00 00 00 00 65 65
 (001.019961)  can0  100   [8]  00 00 00 00 00 00 66 66
 (001.029963)  can0  100   [8]  00 00 00 00 00 00 67 67
 (001.039940)  can0  100   [8]  00 00 00 00 00 00 68 68
 (001.049965)  can0  100   [8]  00 00 00 00 00 00 69 69
 (001.059963)  can0  100   [8]  00 00 00 00 00 00 6A 6A
 (001.069939)  can0  100   [8]  00 00 00 00 00 00 6B 6B
 (001.079964)  can0  100   [8]  00 00 00 00 00 00 6C 6C
 (001.089961)  can0  100   [8]  00 00 00 00 00 00 6D 6D
 (001.090166)  can0  101   [8]  38 31 3C C8 00 00 0A F7
 (001.099956)  can0  100   [8]  00 00 00 00 00 00 6E 6E
 (001.109962)  can0  100   [8]  00 00 00 00 00 00 6F 6F
 (001.119962)  can0  100   [8]  00 00 00 00 00 00 70 70
 (001.129961)  can0  100   [8]  00 00 00 00 00 00 71 71
 (001.139950)  can0  100   [8]  00 00 00 00 00 00 72 72
 (001.149943)  can0  100   [8]  00 00 00 00 00 00 73 73
 (001.159959)  can0  100   [8]  00 00 00 00 00 00 74 74
 (001.169961)  can0  100   [8]  00 00 00 00 00 00 75 75
 (001.179970)  can0  100   [8]  00 00 00 00 00 00 76 76
 (001.189964)  can0  100   [8]  00 00 00 00 00 00 77 77
 (001.190169)  can0  101   [8]  38 31 3C C8 00 00 0B F6
 (001.199958)  can0  100   [8]  00 00 00 00 00 00 78 78
 (001.209966)  can0  100   [8]  00 00 00 00 00 00 79 79
 (001.219956)  can0  100   [8]  00 00 00 00 00 00 7A 7A
 (001.229961)  can0  100   [8]  00 00 00 00 00 00 7B 7B
 (001.239964)  can0  100   [8]  00 00 00 00 00 00 7C 7C
 (001.249963)  can0  100   [8]  00 00 00 00 00 00 7D 7D
 (001.259963)  can0  100   [8]  00 00 00 00 00 00 7E 7E
 (001.269959)  can0  100   [8]  00 00 00 00 00 00 7F 7F
 (001.279959)  can0  100   [8]  00 00 00 00 00 00 80 80
 (001.289955)  can0  100   [8]  00 00 00 00 00 00 81 81
 (001.290160)  can0  101   [8]  38 31 3C C8 00 00 0C F1
 (001.299956)  can0  100   [8]  00 00 00 00 00 00 82 82
 (001.309957)  can0  100   [8]  00 00 00 00 00 00 83 83
 (001.319949)  can0  100   [8]  00 00 00 00 00 00 84 84
 (001.329960)  can0  100   [8]  00 00 00 00 00 00 85 85
 (001.339954)  can0  100   [8]  00 00 00 00 00 00 86 86
 (001.349956)  can0  100   [8]  00 00 00 00 00 00 87 87
 (001.359970)  can0  100   [8]  00 00 00 00 00 00 88 88
 (001.369951)  can0  100   [8]  00 00 00 00 00 00 89 89
 (001.379955)  can0  100   [8]  00 00 00 00 00 00 8A 8A
 (001.389932)  can0  100   [8]  00 00 00 00 00 00 8B 8B
 (001.390167)  can0  101   [8]  38 31 3C C8 00 00 0D F0
 (001.399954)  can0  100   [8]  00 00 00 00 00 00 8C 8C
 (001.409951)  can0  100   [8]  00 00 00 00 00 00 8D 8D
 (001.419949)  can0  100   [8]  00 00 00 00 00 00 8E 8E
 (001.429956)  can0  100   [8]  00 00 00 00 00 00 8F 8F
 (001.439955)  can0  100   [8]  00 00 00 00 00 00 90 90
 (001.449951)  can0  100   [8]  00 00 00 00 00 00 91 91
 (001.459951)  can0  100   [8]  00 00 00 00 00 00 92 92
 (001.469949)  can0  100   [8]  00 00 00 00 00 00 93 93
 (001.479946)  can0  100   [8]  00 00 00 00 00 00 94 94
 (001.489949)  can0  100   [8]  00 00 00 00 00 00 95 95
 (001.490157)  can0  101   [8]  38 31 3C C8 00 00 0E F3
 (001.499947)  can0  100   [8]  00 00 00 00 00 00 96 96
 (001.509952)  can0  100   [8]  00 00 00 00 00 00 97 97
 (001.519944)  can0  100   [8]  00 00 00 00 00 00 98 98
 (001.529951)  can0  100   [8]  00 00 00 00 00 00 99 99
 (001.539947)  can0  100   [8]  00 00 00 00 00 00 9A 9A
 (001.549950)  can0  100   [8]  00 00 00 00 00 00 9B 9B
 (001.559943)  can0  100   [8]  00 00 00 00 00 00 9C 9C
 (001.569950)  can0  100   [8]  00 00 00 00 00 00 9D 9D
 (001.579948)  can0  100   [8]  00 00 00 00 00 00 9E 9E
 (001.589948)  can0  100   [8]  00 00 00 00 00 00 9F 9F
 (001.590160)  can0  101   [8]  38 31 3C C8 00 00 0F F2
 (001.599950)  can0  100   [8]  00 00 00 00 00 00 A0 A0
 (001.609947)  can0  100   [8]  00 00 00 00 00 00 A1 A1
 (001.619943)  can0  100   [8]  00 00 00 00 00 00 A2 A2
 (001.629947)  can0  100   [8]  00 00 00 00 00 00 A3 A3
 (001.639944)  can0  100   [8]  00 00 00 00 00 00 A4 A4
 (001.649944)  can0  100   [8]  00 00 00 00 00 00 A5 A5
 (001.659944)  can0  100   [8]  00 00 00 00 00 00 A6 A6
 (001.669943)  can0  100   [8]  00 00 00 00 00 00 A7 A7
 (001.679942)  can0  100   [8]  00 00 00 00 00 00 A8 A8
 (001.689947)  can0  100   [8]  00 00 00 00 00 00 A9 A9
 (001.690152)  can0  101   [8]  38 31 3C C8 00 00 10 ED
 (001.699945)  can0  100   [8]  00 00 00 00 00 00 AA AA
 (001.709940)  can0  100   [8]  00 00 00 00 00 00 AB AB
 (001.719940)  can0  100   [8]  00 00 00 00 00 00 AC AC
 (001.729942)  can0  100   [8]  00 00 00 00 00 00 AD AD
 (001.739939)  can0  100   [8]  00 00 00 00 00 00 AE AE
 (001.749944)  can0  100   [8]  00 00 00 00 00 00 AF AF
 (001.759945)  can0  100   [8]  00 00 00 00 00 00 B0 B0
 (001.769943)  can0  100   [8]  00 00 00 00 00 00 B1 B1
 (001.779946)  can0  100   [8]  00 00 00 00 00 00 B2 B2
 (001.789926)  can0  100   [8]  00 00 00 00 00 00 B3 B3
 (001.790150)  can0  101   [8]  38 31 3C C8 00 00 11 EC
 (001.799950)  can0  100   [8]  00 00 00 00 00 00 B4 B4
 (001.809941)  can0  100   [8]  00 00 00 00 00 00 B5 B5
 (001.819942)  can0  100   [8]  00 00 00 00 00 00 B6 B6
 (001.829943)  can0  100   [8]  00 00 00 00 00 00 B7 B7
 (001.839938)  can0  100   [8]  00 00 00 00 00 00 B8 B8
 (001.849937)  can0  100   [8]  00 00 00 00 00 00 B9 B9
 (001.859940)  can0  100   [8]  00 00 00 00 00 00 BA BA
 (001.869917)  can0  100   [8]  00 00 00 00 00 00 BB BB
 (001.879945)  can0  100   [8]  00 00 00 00 00 00 BC BC
 (001.889938)  can0  100   [8]  00 00 00 00 00 00 BD BD
 (001.890149)  can0  101   [8]  38 31 3C C8 00 00 12 EF
 (001.899946)  can0  100   [8]  00 00 00 00 00 00 BE BE
 (001.909938)  can0  100   [8]  00 00 00 00 00 00 BF BF
 (001.919939)  can0  100   [8]  00 00 00 00 00 00 C0 C0
 (001.929944)  can0  100   [8]  00 00 00 00 00 00 C1 C1
 (001.939947)  can0  100   [8]  00 00 00 00 00 00 C2 C2
 (001.949935)  can0  100   [8]  00 00 00 00 00 00 C3 C3
 (001.959934)  can0  100   [8]  00 00 00 00 00 00 C4 C4
 (001.969932)  can0  100   [8]  00 00 00 00 00 00 C5 C5
 (001.979937)  can0  100   [8]  00 00 00 00 00 00 C6 C6
 (001.989935)  can0  100   [8]  00 00 00 00 00 00 C7 C7
 (001.990147)  can0  101   [8]  38 31 3C C8 00 00 13 EE
 (001.990386)  can0  102   [8]  87 D6 12 01 00 00 01 43
 (001.999938)  can0  100   [8]  00 00 00 00 00 00 C8 C8
 (002.009933)  can0  100   [8]  00 00 00 00 00 00 C9 C9
 (002.019935)  can0  100   [8]  00 00 00 00 00 00 CA CA
 (002.029939)  can0  100   [8]  00 00 00 00 00 00 CB CB
 (002.039930)  can0  100   [8]  00 00 00 00 00 00 CC CC
 (002.049932)  can0  100   [8]  00 00 00 00 00 00 CD CD
 (002.059935)  can0  100   [8]  00 00 00 00 00 00 CE CE
 (002.069936)  can0  100   [8]  00 00 00 00 00 00 CF CF
 (002.079933)  can0  100   [8]  00 00 00 00 00 00 D0 D0
 (002.089934)  can0  100   [8]  00 00 00 00 00 00 D1 D1
 (002.090137)  can0  101   [8]  38 31 3C C8 00 00 14 E9
 (002.099933)  can0  100   [8]  00 00 00 00 00 00 D2 D2
 (002.109915)  can0  100   [8]  00 00 00 00 00 00 D3 D3
 (002.119935)  can0  100   [8]  00 00 00 00 00 00 D4 D4
 (002.129934)  can0  100   [8]  00 00 00 00 00 00 D5 D5
 (002.139934)  can0  100   [8]  00 00 00 00 00 00 D6 D6
 (002.149929)  can0  100   [8]  00 00 00 00 00 00 D7 D7
 (002.159932)  can0  100   [8]  00 00 00 00 00 00 D8 D8
 (002.169928)  can0  100   [8]  00 00 00 00 00 00 D9 D9
 (002.179939)  can0  100   [8]  00 00 00 00 00 00 DA DA
 (002.189912)  can0  100   [8]  00 00 00 00 00 00 DB DB
 (002.190136)  can0  101   [8]  38 31 3C C8 00 00 15 E8
 (002.199929)  can0  100   [8]  00 00 00 00 00 00 DC DC
 (002.209931)  can0  100   [8]  00 00 00 00 00 00 DD DD
 (002.219931)  can0  100   [8]  00 00 00 00 00 00 DE DE
 (002.229935)  can0  100   [8]  00 00 00 00 00 00 DF DF
 (002.239933)  can0  100   [8]  00 00 00 00 00 00 E0 E0
 (002.249932)  can0  100   [8]  00 00 00 00 00 00 E1 E1
 (002.259932)  can0  100   [8]  00 00 00 00 00 00 E2 E2
 (002.269931)  can0  100   [8]  00 00 00 00 00 00 E3 E3
 (002.279927)  can0  100   [8]  00 00 00 00 00 00 E4 E4
 (002.289925)  can0  100   [8]  00 00 00 00 00 00 E5 E5
 (002.290139)  can0  101   [8]  38 31 3C C8 00 00 16 EB
 (002.299945)  can0  100   [8]  00 00 00 00 00 00 E6 E6
 (002.309932)  can0  100   [8]  00 00 00 00 00 00 E7 E7
 (002.319926)  can0  100   [8]  00 00 00 00 00 00 E8 E8
 (002.329927)  can0  100   [8]  00 00 00 00 00 00 E9 E9
 (002.339931)  can0  100   [8]  00 00 00 00 00 00 EA EA
 (002.349928)  can0  100   [8]  00 00 00 00 00 00 EB EB
 (002.359924)  can0  100   [8]  00 00 00 00 00 00 EC EC
 (002.369927)  can0  100   [8]  00 00 00 00 00 00 ED ED
 (002.379924)  can0  100   [8]  00 00 00 00 00 00 EE EE
 (002.389931)  can0  100   [8]  00 00 00 00 00 00 EF EF
 (002.390145)  can0  101   [8]  38 31 3C C8 00 00 17 EA
 (002.399925)  can0  100   [8]  00 00 00 00 00 00 F0 F0
 (002.409923)  can0  100   [8]  00 00 00 00 00 00 F1 F1
 (002.419922)  can0  100   [8]  00 00 00 00 00 00 F2 F2
 (002.429910)  can0  100   [8]  00 00 00 00 00 00 F3 F3
 (002.439929)  can0  100   [8]  00 00 00 00 00 00 F4 F4
 (002.449921)  can0  100   [8]  00 00 00 00 00 00 F5 F5
 (002.459925)  can0  100   [8]  00 00 00 00 00 00 F6 F6
 (002.469923)  can0  100   [8]  00 00 00 00 00 00 F7 F7
 (002.479924)  can0  100   [8]  00 00 00 00 00 00 F8 F8
 (002.489920)  can0  100   [8]  00 00 00 00 00 00 F9 F9
 (002.490133)  can0  101   [8]  38 31 3C C8 00 00 18 E5
 (002.499927)  can0  100   [8]  00 00 00 00 00 00 FA FA
 (002.509924)  can0  100   [8]  00 00 00 00 00 00 FB FB
 (002.519926)  can0  100   [8]  00 00 00 00 00 00 FC FC
 (002.529926)  can0  100   [8]  00 00 00 00 00 00 FD FD
 (002.539921)  can0  100   [8]  00 00 00 00 00 00 FE FE
 (002.549921)  can0  100   [8]  00 00 00 00 00 00 FF FF
 (002.559927)  can0  100   [8]  00 00 00 00 00 00 00 00
 (002.569918)  can0  100   [8]  00 00 00 00 00 00 01 01
 (002.579922)  can0  100   [8]  00 00 00 00 00 00 02 02
 (002.589926)  can0  100   [8]  00 00 00 00 00 00 03 03
 (002.590131)  can0  101   [8]  38 31 3C C8 00 00 19 E4
 (002.599922)  can0  100   [8]  00 00 00 00 00 00 04 04
 (002.609919)  can0  100   [8]  00 00 00 00 00 00 05 05
 (002.619917)  can0  100   [8]  00 00 00 00 00 00 06 06
 (002.629923)  can0  100   [8]  00 00 00 00 00 00 07 07
 (002.639920)  can0  100   [8]  00 00 00 00 00 00 08 08
 (002.649918)  can0  100   [8]  00 00 00 00 00 00 09 09
 (002.659921)  can0  100   [8]  00 00 00 00 00 00 0A 0A
 (002.669902)  can0  100   [8]  00 00 00 00 00 00 0B 0B
 (002.679925)  can0  100   [8]  00 00 00 00 00 00 0C 0C
 (002.689920)  can0  100   [8]  00 00 00 00 00 00 0D 0D
 (002.690129)  can0  101   [8]  38 31 3C C8 00 00 1A E7
 (002.699920)  can0  100   [8]  00 00 00 00 00 00 0E 0E
 (002.709924)  can0  100   [8]  00 00 00 00 00 00 0F 0F
 (002.719921)  can0  100   [8]  00 00 00 00 00 00 10 10
 (002.729918)  can0  100   [8]  00 00 00 00 00 00 11 11
 (002.739912)  can0  100   [8]  00 00 00 00 00 00 12 12
 (002.749882)  can0  100   [8]  00 00 00 00 00 00 13 13
 (002.759929)  can0  100   [8]  00 00 00 00 00 00 14 14
 (002.769921)  can0  100   [8]  00 00 00 00 00 00 15 15
 (002.779931)  can0  100   [8]  00 00 00 00 00 00 16 16
 (002.789914)  can0  100   [8]  00 00 00 00 00 00 17 17
 (002.790120)  can0  101   [8]  38 31 3C C8 00 00 1B E6
 (002.799915)  can0  100   [8]  00 00 00 00 00 00 18 18
 (002.809913)  can0  100   [8]  00 00 00 00 00 00 19 19
 (002.819909)  can0  100   [8]  00 00 00 00 00 00 1A 1A
 (002.829895)  can0  100   [8]  00 00 00 00 00 00 1B 1B
 (002.839919)  can0  100   [8]  00 00 00 00 00 00 1C 1C
 (002.849891)  can0  100   [8]  00 00 00 00 00 00 1D 1D
 (002.859916)  can0  100   [8]  00 00 00 00 00 00 1E 1E
 (002.869912)  can0  100   [8]  00 00 00 00 00 00 1F 1F
 (002.879917)  can0  100   [8]  00 00 00 00 00 00 20 20
 (002.889911)  can0  100   [8]  00 00 00 00 00 00 21 21
 (002.890115)  can0  101   [8]  38 31 3C C8 00 00 1C E1
 (002.899909)  can0  100   [8]  00 00 00 00 00 00 22 22
 (002.909888)  can0  100   [8]  00 00 00 00 00 00 23 23
 (002.919916)  can0  100   [8]  00 00 00 00 00 00 24 24
 (002.929910)  can0  100   [8]  00 00 00 00 00 00 25 25
 (002.939910)  can0  100   [8]  00 00 00 00 00 00 26 26
 (002.949891)  can0  100   [8]  00 00 00 00 00 00 27 27
 (002.959913)  can0  100   [8]  00 00 00 00 00 00 28 28
 (002.969906)  can0  100   [8]  00 00 00 00 00 00 29 29
 (002.979906)  can0  100   [8]  00 00 00 00 00 00 2A 2A
 (002.989903)  can0  100   [8]  00 00 00 00 00 00 2B 2B
 (002.990117)  can0  101   [8]  38 31 3C C8 00 00 1D E0
 (002.990360)  can0  102   [8]  87 D6 12 01 00 00 02 40
 (002.999908)  can0  100   [8]  00 00 80 0C 00 00 2C A0
 (003.009901)  can0  100   [8]  00 00 80 0C 00 00 2D A1
 (003.019901)  can0  100   [8]  00 00 80 0C 00 00 2E A2
 (003.029910)  can0  100   [8]  00 00 80 0C 00 00 2F A3
 (003.039903)  can0  100   [8]  00 00 80 0C 00 00 30 BC
 (003.049884)  can0  100   [8]  00 00 80 0C 00 00 31 BD
 (003.059909)  can0  100   [8]  00 00 80 0C 00 00 32 BE
 (003.069908)  can0  100   [8]  00 00 80 0C 00 00 33 BF
 (003.079904)  can0  100   [8]  00 00 80 0C 00 00 34 B8
 (003.089901)  can0  100   [8]  00 00 80 0C 00 00 35 B9
 (003.090113)  can0  101   [8]  E8 35 3C C8 00 00 1E 37
 (003.099897)  can0  100   [8]  00 00 80 0C 00 00 36 BA
 (003.109897)  can0  100   [8]  00 00 80 0C 00 00 37 BB
 (003.119899)  can0  100   [8]  00 00 80 0C 00 00 38 B4
 (003.129905)  can0  100   [8]  00 00 80 0C 00 00 39 B5
 (003.139900)  can0  100   [8]  00 00 80 0C 00 00 3A B6
 (003.149882)  can0  100   [8]  00 00 80 0C 00 00 3B B7
 (003.159905)  can0  100   [8]  00 00 80 0C 00 00 3C B0
 (003.169906)  can0  100   [8]  00 00 80 0C 00 00 3D B1
 (003.179914)  can0  100   [8]  00 00 80 0C 00 00 3E B2
 (003.189909)  can0  100   [8]  00 00 80 0C 00 00 3F B3
 (003.190114)  can0  101   [8]  E8 35 3C C8 00 00 1F 36
 (003.199899)  can0  100   [8]  00 00 80 0C 00 00 40 CC
 (003.209901)  can0  100   [8]  00 00 80 0C 00 00 41 CD
 (003.219897)  can0  100   [8]  00 00 80 0C 00 00 42 CE
 (003.229880)  can0  100   [8]  00 00 80 0C 00 00 43 CF
 (003.239900)  can0  100   [8]  00 00 80 0C 00 00 44 C8
 (003.249878)  can0  100   [8]  00 00 80 0C 00 00 45 C9
 (003.259899)  can0  100   [8]  00 00 80 0C 00 00 46 CA
 (003.269900)  can0  100   [8]  00 00 80 0C 00 00 47 CB
 (003.279900)  can0  100   [8]  00 00 80 0C 00 00 48 C4
 (003.289891)  can0  100   [8]  00 00 80 0C 00 00 49 C5
 (003.290103)  can0  101   [8]  E8 35 3C C8 00 00 20 09
 (003.299903)  can0  100   [8]  00 00 80 0C 00 00 4A C6
 (003.309899)  can0  100   [8]  00 00 80 0C 00 00 4B C7
 (003.319896)  can0  100   [8]  00 00 80 0C 00 00 4C C0
 (003.329901)  can0  100   [8]  00 00 80 0C 00 00 4D C1
 (003.339897)  can0  100   [8]  00 00 80 0C 00 00 4E C2
 (003.349876)  can0  100   [8]  00 00 80 0C 00 00 4F C3
 (003.359899)  can0  100   [8]  00 00 80 0C 00 00 50 DC
 (003.369895)  can0  100   [8]  00 00 80 0C 00 00 51 DD
 (003.379898)  can0  100   [8]  00 00 80 0C 00 00 52 DE
 (003.389898)  can0  100   [8]  00 00 80 0C 00 00 53 DF
 (003.390101)  can0  101   [8]  E8 35 3C C8 00 00 21 08
 (003.399898)  can0  100   [8]  00 00 80 0C 00 00 54 D8
 (003.409891)  can0  100   [8]  00 00 80 0C 00 00 55 D9
 (003.419897)  can0  100   [8]  00 00 80 0C 00 00 56 DA
 (003.429895)  can0  100   [8]  00 00 80 0C 00 00 57 DB
 (003.439893)  can0  100   [8]  00 00 80 0C 00 00 58 D4
 (003.449870)  can0  100   [8]  00 00 80 0C 00 00 59 D5
 (003.459891)  can0  100   [8]  00 00 80 0C 00 00 5A D6
 (003.469869)  can0  100   [8]  00 00 80 0C 00 00 5B D7
 (003.479897)  can0  100   [8]  00 00 80 0C 00 00 5C D0
 (003.489892)  can0  100   [8]  00 00 80 0C 00 00 5D D1
 (003.490100)  can0  101   [8]  E8 35 3C C8 00 00 22 0B
 (003.499891)  can0  100   [8]  00 00 80 0C 00 00 5E D2
 (003.509894)  can0  100   [8]  00 00 80 0C 00 00 5F D3
 (003.519890)  can0  100   [8]  00 00 80 0C 00 00 60 EC
 (003.529890)  can0  100   [8]  00 00 80 0C 00 00 61 ED
 (003.539887)  can0  100   [8]  00 00 80 0C 00 00 62 EE
 (003.549871)  can0  100   [8]  00 00 80 0C 00 00 63 EF
 (003.559893)  can0  100   [8]  00 00 80 0C 00 00 64 E8
 (003.569890)  can0  100   [8]  00 00 80 0C 00 00 65 E9
 (003.579889)  can0  100   [8]  00 00 80 0C 00 00 66 EA
 (003.589887)  can0  100   [8]  00 00 80 0C 00 00 67 EB
 (003.590094)  can0  101   [8]  E8 35 3C C8 00 00 23 0A
 (003.599886)  can0  100   [8]  00 00 80 0C 00 00 68 E4
 (003.609884)  can0  100   [8]  00 00 80 0C 00 00 69 E5
 (003.619882)  can0  100   [8]  00 00 80 0C 00 00 6A E6
 (003.629886)  can0  100   [8]  00 00 80 0C 00 00 6B E7
 (003.639886)  can0  100   [8]  00 00 80 0C 00 00 6C E0
 (003.649865)  can0  100   [8]  00 00 80 0C 00 00 6D E1
 (003.659889)  can0  100   [8]  00 00 80 0C 00 00 6E E2
 (003.669890)  can0  100   [8]  00 00 80 0C 00 00 6F E3
 (003.679880)  can0  100   [8]  00 00 80 0C 00 00 70 FC
 (003.689883)  can0  100   [8]  00 00 80 0C 00 00 71 FD
 (003.690094)  can0  101   [8]  E8 35 3C C8 00 00 24 0D
 (003.699885)  can0  100   [8]  00 00 80 0C 00 00 72 FE
 (003.709905)  can0  100   [8]  00 00 80 0C 00 00 73 FF
 (003.719888)  can0  100   [8]  00 00 80 0C 00 00 74 F8
 (003.729885)  can0  100   [8]  00 00 80 0C 00 00 75 F9
 (003.739885)  can0  100   [8]  00 00 80 0C 00 00 76 FA
 (003.749862)  can0  100   [8]  00 00 80 0C 00 00 77 FB
 (003.759884)  can0  100   [8]  00 00 80 0C 00 00 78 F4
 (003.769884)  can0  100   [8]  00 00 80 0C 00 00 79 F5
 (003.779883)  can0  100   [8]  00 00 80 0C 00 00 7A F6
 (003.789864)  can0  100   [8]  00 00 80 0C 00 00 7B F7
 (003.790086)  can0  101   [8]  E8 35 3C C8 00 00 25 0C
 (003.799887)  can0  100   [8]  00 00 80 0C 00 00 7C F0
 (003.809884)  can0  100   [8]  00 00 80 0C 00 00 7D F1
 (003.819881)  can0  100   [8]  00 00 80 0C 00 00 7E F2
 (003.829884)  can0  100   [8]  00 00 80 0C 00 00 7F F3
 (003.839884)  can0  100   [8]  00 00 80 0C 00 00 80 0C
 (003.849862)  can0  100   [8]  00 00 80 0C 00 00 81 0D
 (003.859888)  can0  100   [8]  00 00 80 0C 00 00 82 0E
 (003.869880)  can0  100   [8]  00 00 80 0C 00 00 83 0F
 (003.879882)  can0  100   [8]  00 00 80 0C 00 00 84 08
 (003.889877)  can0  100   [8]  00 00 80 0C 00 00 85 09
 (003.890087)  can0  101   [8]  E8 35 3C C8 00 00 26 0F
 (003.899882)  can0  100   [8]  00 00 80 0C 00 00 86 0A
 (003.909882)  can0  100   [8]  00 00 80 0C 00 00 87 0B
 (003.919880)  can0  100   [8]  00 00 80 0C 00 00 88 04
 (003.929875)  can0  100   [8]  00 00 80 0C 00 00 89 05
 (003.939881)  can0  100   [8]  00 00 80 0C 00 00 8A 06
 (003.949863)  can0  100   [8]  00 00 80 0C 00 00 8B 07
 (003.959885)  can0  100   [8]  00 00 80 0C 00 00 8C 00
 (003.969881)  can0  100   [8]  00 00 80 0C 00 00 8D 01
 (003.979878)  can0  100   [8]  00 00 80 0C 00 00 8E 02
 (003.989880)  can0  100   [8]  00 00 80 0C 00 00 8F 03
 (003.990084)  can0  101   [8]  E8 35 3C C8 00 00 27 0E
 (003.990356)  can0  102   [8]  87 D6 12 00 02 00 03 42
 (003.999880)  can0  100   [8]  00 00 80 0C 00 00 90 1C
 (004.009874)  can0  100   [8]  00 00 80 0C 00 00 91 1D
 (004.019873)  can0  100   [8]  00 00 80 0C 00 00 92 1E
 (004.029877)  can0  100   [8]  00 00 80 0C 00 00 93 1F
 (004.039875)  can0  100   [8]  00 00 80 0C 00 00 94 18
 (004.049856)  can0  100   [8]  00 00 80 0C 00 00 95 19
 (004.059874)  can0  100   [8]  00 00 80 0C 00 00 96 1A
 (004.069878)  can0  100   [8]  00 00 80 0C 00 00 97 1B
 (004.079880)  can0  100   [8]  00 00 80 0C 00 00 98 14
 (004.089874)  can0  100   [8]  00 00 80 0C 00 00 99 15
 (004.090086)  can0  101   [8]  E8 35 3D C8 00 00 28 00
 (004.099871)  can0  100   [8]  00 00 80 0C 00 00 9A 16
 (004.109868)  can0  100   [8]  00 00 80 0C 00 00 9B 17
 (004.119871)  can0  100   [8]  00 00 80 0C 00 00 9C 10
 (004.129874)  can0  100   [8]  00 00 80 0C 00 00 9D 11
 (004.139868)  can0  100   [8]  00 00 80 0C 00 00 9E 12
 (004.149841)  can0  100   [8]  00 00 80 0C 00 00 9F 13
 (004.159873)  can0  100   [8]  00 00 80 0C 00 00 A0 2C
 (004.169869)  can0  100   [8]  00 00 80 0C 00 00 A1 2D
 (004.179894)  can0  100   [8]  00 00 80 0C 00 00 A2 2E
 (004.189855)  can0  100   [8]  00 00 80 0C 00 00 A3 2F
 (004.190086)  can0  101   [8]  E8 35 3D C8 00 00 29 01
 (004.199874)  can0  100   [8]  00 00 80 0C 00 00 A4 28
 (004.209872)  can0  100   [8]  00 00 80 0C 00 00 A5 29
 (004.219872)  can0  100   [8]  00 00 80 0C 00 00 A6 2A
 (004.229876)  can0  100   [8]  00 00 80 0C 00 00 A7 2B
 (004.239872)  can0  100   [8]  00 00 80 0C 00 00 A8 24
 (004.249871)  can0  100   [8]  00 00 80 0C 00 00 A9 25
 (004.259875)  can0  100   [8]  00 00 80 0C 00 00 AA 26
 (004.269850)  can0  100   [8]  00 00 80 0C 00 00 AB 27
 (004.279873)  can0  100   [8]  00 00 80 0C 00 00 AC 20
 (004.289870)  can0  100   [8]  00 00 80 0C 00 00 AD 21
 (004.290082)  can0  101   [8]  E8 35 3D C8 00 00 2A 02
 (004.299866)  can0  100   [8]  00 00 80 0C 00 00 AE 22
 (004.309871)  can0  100   [8]  00 00 80 0C 00 00 AF 23
 (004.319872)  can0  100   [8]  00 00 80 0C 00 00 B0 3C
 (004.329869)  can0  100   [8]  00 00 80 0C 00 00 B1 3D
 (004.339868)  can0  100   [8]  00 00 80 0C 00 00 B2 3E
 (004.349868)  can0  100   [8]  00 00 80 0C 00 00 B3 3F
 (004.359865)  can0  100   [8]  00 00 80 0C 00 00 B4 38
 (004.369866)  can0  100   [8]  00 00 80 0C 00 00 B5 39
 (004.379864)  can0  100   [8]  00 00 80 0C 00 00 B6 3A
 (004.389864)  can0  100   [8]  00 00 80 0C 00 00 B7 3B
 (004.390077)  can0  101   [8]  E8 35 3D C8 00 00 2B 03
 (004.399870)  can0  100   [8]  00 00 80 0C 00 00 B8 34
 (004.409863)  can0  100   [8]  00 00 80 0C 00 00 B9 35
 (004.419866)  can0  100   [8]  00 00 80 0C 00 00 BA 36
 (004.429870)  can0  100   [8]  00 00 80 0C 00 00 BB 37
 (004.439860)  can0  100   [8]  00 00 80 0C 00 00 BC 30
 (004.449862)  can0  100   [8]  00 00 80 0C 00 00 BD 31
 (004.459868)  can0  100   [8]  00 00 80 0C 00 00 BE 32
 (004.469868)  can0  100   [8]  00 00 80 0C 00 00 BF 33
 (004.479866)  can0  100   [8]  00 00 80 0C 00 00 C0 4C
 (004.489859)  can0  100   [8]  00 00 80 0C 00 00 C1 4D
 (004.490071)  can0  101   [8]  E8 35 3D C8 00 00 2C 04
 (004.499862)  can0  100   [8]  00 00 80 0C 00 00 C2 4E
 (004.509840)  can0  100   [8]  00 00 80 0C 00 00 C3 4F
 (004.519866)  can0  100   [8]  00 00 80 0C 00 00 C4 48
 (004.529865)  can0  100   [8]  00 00 80 0C 00 00 C5 49
 (004.539858)  can0  100   [8]  00 00 80 0C 00 00 C6 4A
 (004.549860)  can0  100   [8]  00 00 80 0C 00 00 C7 4B
 (004.559858)  can0  100   [8]  00 00 80 0C 00 00 C8 44
 (004.569858)  can0  100   [8]  00 00 80 0C 00 00 C9 45
 (004.579857)  can0  100   [8]  00 00 80 0C 00 00 CA 46
 (004.589857)  can0  100   [8]  00 00 80 0C 00 00 CB 47
 (004.590067)  can0  101   [8]  E8 35 3D C8 00 00 2D 05
 (004.599863)  can0  100   [8]  00 00 80 0C 00 00 CC 40
 (004.609862)  can0  100   [8]  00 00 80 0C 00 00 CD 41
 (004.619862)  can0  100   [8]  00 00 80 0C 00 00 CE 42
 (004.629864)  can0  100   [8]  00 00 80 0C 00 00 CF 43
 (004.639860)  can0  100   [8]  00 00 80 0C 00 00 D0 5C
 (004.649859)  can0  100   [8]  00 00 80 0C 00 00 D1 5D
 (004.659858)  can0  100   [8]  00 00 80 0C 00 00 D2 5E
 (004.669857)  can0  100   [8]  00 00 80 0C 00 00 D3 5F
 (004.679856)  can0  100   [8]  00 00 80 0C 00 00 D4 58
 (004.689858)  can0  100   [8]  00 00 80 0C 00 00 D5 59
 (004.690065)  can0  101   [8]  E8 35 3D C8 00 00 2E 06
 (004.699859)  can0  100   [8]  00 00 80 0C 00 00 D6 5A
 (004.709855)  can0  100   [8]  00 00 80 0C 00 00 D7 5B
 (004.719854)  can0  100   [8]  00 00 80 0C 00 00 D8 54
 (004.729855)  can0  100   [8]  00 00 80 0C 00 00 D9 55
 (004.739858)  can0  100   [8]  00 00 80 0C 00 00 DA 56
 (004.749836)  can0  100   [8]  00 00 80 0C 00 00 DB 57
 (004.759863)  can0  100   [8]  00 00 80 0C 00 00 DC 50
 (004.769856)  can0  100   [8]  00 00 80 0C 00 00 DD 51
 (004.779854)  can0  100   [8]  00 00 80 0C 00 00 DE 52
 (004.789851)  can0  100   [8]  00 00 80 0C 00 00 DF 53
 (004.790059)  can0  101   [8]  E8 35 3D C8 00 00 2F 07
 (004.799859)  can0  100   [8]  00 00 80 0C 00 00 E0 6C
 (004.809854)  can0  100   [8]  00 00 80 0C 00 00 E1 6D
 (004.819853)  can0  100   [8]  00 00 80 0C 00 00 E2 6E
 (004.829834)  can0  100   [8]  00 00 80 0C 00 00 E3 6F
 (004.839856)  can0  100   [8]  00 00 80 0C 00 00 E4 68
 (004.849852)  can0  100   [8]  00 00 80 0C 00 00 E5 69
 (004.859850)  can0  100   [8]  00 00 80 0C 00 00 E6 6A
 (004.869854)  can0  100   [8]  00 00 80 0C 00 00 E7 6B
 (004.879855)  can0  100   [8]  00 00 80 0C 00 00 E8 64
 (004.889851)  can0  100   [8]  00 00 80 0C 00 00 E9 65
 (004.890062)  can0  101   [8]  E8 35 3D C8 00 00 30 18
 (004.899850)  can0  100   [8]  00 00 80 0C 00 00 EA 66
 (004.909849)  can0  100   [8]  00 00 80 0C 00 00 EB 67
 (004.919857)  can0  100   [8]  00 00 80 0C 00 00 EC 60
 (004.929851)  can0  100   [8]  00 00 80 0C 00 00 ED 61
 (004.939850)  can0  100   [8]  00 00 80 0C 00 00 EE 62
 (004.949847)  can0  100   [8]  00 00 80 0C 00 00 EF 63
 (004.959856)  can0  100   [8]  00 00 80 0C 00 00 F0 7C
 (004.969849)  can0  100   [8]  00 00 80 0C 00 00 F1 7D
 (004.979848)  can0  100   [8]  00 00 80 0C 00 00 F2 7E
 (004.989828)  can0  100   [8]  00 00 80 0C 00 00 F3 7F
 (004.990054)  can0  101   [8]  E8 35 3D C8 00 00 31 19
 (004.990297)  can0  102   [8]  87 D6 12 00 02 00 04 45
 (004.999850)  can0  100   [8]  00 00 80 0C 50 01 F4 29
 (005.009847)  can0  100   [8]  04 00 24 0E 50 01 F5 8A
 (005.019848)  can0  100   [8]  08 00 3C 0E 50 01 F6 9D
 (005.029851)  can0  100   [8]  0C 00 50 0E 50 01 F7 F4
 (005.039845)  can0  100   [8]  10 00 68 0E 50 01 F8 DF
 (005.049848)  can0  100   [8]  14 00 80 0E 50 01 F9 32
 (005.059851)  can0  100   [8]  18 00 94 0E 50 01 FA 29
 (005.069846)  can0  100   [8]  1C 00 AC 0E 50 01 FB 14
 (005.079846)  can0  100   [8]  20 00 C0 0E 50 01 FC 43
 (005.089844)  can0  100   [8]  24 00 D8 0E 50 01 FD 5E
 (005.090056)  can0  101   [8]  E8 35 3E C8 00 00 32 19
 (005.099839)  can0  100   [8]  28 00 F0 0E 50 01 FE 79
 (005.109849)  can0  100   [8]  2C 00 04 0F 50 01 FF 89
 (005.119866)  can0  100   [8]  30 00 1C 0F 50 01 00 72
 (005.129845)  can0  100   [8]  34 00 30 0F 50 01 01 5B
 (005.139846)  can0  100   [8]  38 00 48 0F 50 01 02 2C
 (005.149844)  can0  100   [8]  3C 00 60 0F 50 01 03 01
 (005.159836)  can0  100   [8]  40 00 74 0F 50 01 04 6E
 (005.169841)  can0  100   [8]  44 00 8C 0F 50 01 05 93
 (005.179851)  can0  100   [8]  48 00 A0 0F 50 01 06 B0
 (005.189849)  can0  100   [8]  4C 00 B8 0F 50 01 07 AD
 (005.190052)  can0  101   [8]  E8 35 3E C8 00 00 33 18
 (005.199838)  can0  100   [8]  50 00 D0 0F 50 01 08 D6
 (005.209846)  can0  100   [8]  54 00 E4 0F 50 01 09 E7
 (005.219837)  can0  100   [8]  58 00 FC 0F 50 01 0A F0
 (005.229822)  can0  100   [8]  5C 00 10 10 50 01 0B 06
 (005.239843)  can0  100   [8]  60 00 28 10 50 01 0C 05
 (005.249834)  can0  100   [8]  64 00 40 10 50 01 0D 68
 (005.259841)  can0  100   [8]  68 00 54 10 50 01 0E 73
 (005.269840)  can0  100   [8]  6C 00 6C 10 50 01 0F 4E
 (005.279844)  can0  100   [8]  70 00 80 10 50 01 10 A1
 (005.289846)  can0  100   [8]  74 00 98 10 50 01 11 BC
 (005.290053)  can0  101   [8]  E8 35 3E C8 00 00 34 1F
 (005.299836)  can0  100   [8]  78 00 B0 10 50 01 12 9B
 (005.309825)  can0  100   [8]  7C 00 C4 10 50 01 13 EA
 (005.319842)  can0  100   [8]  80 00 DC 10 50 01 14 09
 (005.329845)  can0  100   [8]  84 00 F0 10 50 01 15 20
 (005.339834)  can0  100   [8]  88 00 08 11 50 01 16 D6
 (005.349838)  can0  100   [8]  8C 00 20 11 50 01 17 FB
 (005.359832)  can0  100   [8]  90 00 34 11 50 01 18 FC
 (005.369829)  can0  100   [8]  94 00 4C 11 50 01 19 81
 (005.379832)  can0  100   [8]  98 00 60 11 50 01 1A A2
 (005.389836)  can0  100   [8]  9C 00 78 11 50 01 1B BF
 (005.390040)  can0  101   [8]  E8 35 3E C8 00 00 35 1E
 (005.399830)  can0  100   [8]  A0 00 90 11 50 01 1C 6C
 (005.409830)  can0  100   [8]  A4 00 A4 11 50 01 1D 5D
 (005.419830)  can0  100   [8]  A8 00 BC 11 50 01 1E 4A
 (005.429834)  can0  100   [8]  AC 00 D0 11 50 01 1F 23
 (005.439835)  can0  100   [8]  B0 00 E8 11 50 01 20 38
 (005.449832)  can0  100   [8]  B4 00 00 12 50 01 21 D6
 (005.459827)  can0  100   [8]  B8 00 14 12 50 01 22 CD
 (005.469834)  can0  100   [8]  BC 00 2C 12 50 01 23 F0
 (005.479833)  can0  100   [8]  C0 00 40 12 50 01 24 E7
 (005.489830)  can0  100   [8]  C4 00 58 12 50 01 25 FA
 (005.490037)  can0  101   [8]  E8 35 3E C8 00 00 36 1D
 (005.499828)  can0  100   [8]  C8 00 70 12 50 01 26 DD
 (005.509823)  can0  100   [8]  CC 00 84 12 50 01 27 2C
 (005.519828)  can0  100   [8]  D0 00 9C 12 50 01 28 27
 (005.529827)  can0  100   [8]  D4 00 B0 12 50 01 29 0E
 (005.539828)  can0  100   [8]  D8 00 C8 12 50 01 2A 79
 (005.549807)  can0  100   [8]  DC 00 E0 12 50 01 2B 54
 (005.559834)  can0  100   [8]  E0 00 F4 12 50 01 2C 7B
 (005.569831)  can0  100   [8]  E4 00 0C 13 50 01 2D 87
 (005.579827)  can0  100   [8]  E8 00 20 13 50 01 2E A4
 (005.589848)  can0  100   [8]  EC 00 38 13 50 01 2F B9
 (005.590038)  can0  101   [8]  E8 35 3E C8 00 00 37 1C
 (005.599829)  can0  100   [8]  F0 00 50 13 50 01 30 D2
 (005.609829)  can0  100   [8]  F4 00 64 13 50 01 31 E3
 (005.619828)  can0  100   [8]  F8 00 7C 13 50 01 32 F4
 (005.629834)  can0  100   [8]  FC 00 90 13 50 01 33 1D
 (005.639833)  can0  100   [8]  00 01 A8 13 50 01 34 DF
 (005.649825)  can0  100   [8]  04 01 C0 13 50 01 35 B2
 (005.659825)  can0  100   [8]  08 01 D4 13 50 01 36 A9
 (005.669826)  can0  100   [8]  0C 01 EC 13 50 01 37 94
 (005.679825)  can0  100   [8]  10 01 00 14 50 01 38 6C
 (005.689823)  can0  100   [8]  14 01 18 14 50 01 39 71
 (005.690034)  can0  101   [8]  E8 35 3E C8 00 00 38 13
 (005.699831)  can0  100   [8]  18 01 30 14 50 01 3A 56
 (005.709823)  can0  100   [8]  1C 01 44 14 50 01 3B 27
 (005.719825)  can0  100   [8]  20 01 5C 14 50 01 3C 04
 (005.729826)  can0  100   [8]  24 01 70 14 50 01 3D 2D
 (005.739829)  can0  100   [8]  28 01 88 14 50 01 3E DA
 (005.749829)  can0  100   [8]  2C 01 A0 14 50 01 3F F7
 (005.759835)  can0  100   [8]  30 01 B4 14 50 01 40 80
 (005.769834)  can0  100   [8]  34 01 CC 14 50 01 41 FD
 (005.779829)  can0  100   [8]  38 01 E0 14 50 01 42 DE
 (005.789809)  can0  100   [8]  3C 01 F8 14 50 01 43 C3
 (005.790035)  can0  101   [8]  E8 35 3E C8 00 00 39 12
 (005.799826)  can0  100   [8]  40 01 10 15 50 01 44 51
 (005.809825)  can0  100   [8]  44 01 24 15 50 01 45 60
 (005.819818)  can0  100   [8]  48 01 3C 15 50 01 46 77
 (005.829820)  can0  100   [8]  4C 01 50 15 50 01 47 1E
 (005.839823)  can0  100   [8]  50 01 68 15 50 01 48 35
 (005.849823)  can0  100   [8]  54 01 80 15 50 01 49 D8
 (005.859799)  can0  100   [8]  58 01 94 15 50 01 4A C3
 (005.869822)  can0  100   [8]  5C 01 AC 15 50 01 4B FE
 (005.879826)  can0  100   [8]  60 01 C0 15 50 01 4C A9
 (005.889814)  can0  100   [8]  64 01 D8 15 50 01 4D B4
 (005.890021)  can0  101   [8]  E8 35 3E C8 00 00 3A 11
 (005.899821)  can0  100   [8]  68 01 F0 15 50 01 4E 93
 (005.909814)  can0  100   [8]  6C 01 04 16 50 01 4F 61
 (005.919817)  can0  100   [8]  70 01 1C 16 50 01 50 7A
 (005.929818)  can0  100   [8]  74 01 30 16 50 01 51 53
 (005.939816)  can0  100   [8]  78 01 48 16 50 01 52 24
 (005.949817)  can0  100   [8]  7C 01 60 16 50 01 53 09
 (005.959796)  can0  100   [8]  80 01 74 16 50 01 54 E6
 (005.969819)  can0  100   [8]  84 01 8C 16 50 01 55 1B
 (005.979813)  can0  100   [8]  88 01 A0 16 50 01 56 38
 (005.989812)  can0  100   [8]  8C 01 B8 16 50 01 57 25
 (005.990023)  can0  101   [8]  E8 35 3E C8 00 00 3B 10
 (005.990267)  can0  102   [8]  87 D6 12 00 02 00 05 44
 (005.999817)  can0  100   [8]  90 01 D0 16 50 01 58 5E
 (006.009813)  can0  100   [8]  94 01 E4 16 50 01 59 6F
 (006.019816)  can0  100   [8]  98 01 FC 16 50 01 5A 78
 (006.029790)  can0  100   [8]  9C 01 10 17 50 01 5B 90
 (006.039817)  can0  100   [8]  A0 01 28 17 50 01 5C 93
 (006.049815)  can0  100   [8]  A4 01 40 17 50 01 5D FE
 (006.059789)  can0  100   [8]  A8 01 54 17 50 01 5E E5
 (006.069812)  can0  100   [8]  AC 01 6C 17 50 01 5F D8
 (006.079815)  can0  100   [8]  B0 01 80 17 50 01 60 17
 (006.089811)  can0  100   [8]  B4 01 98 17 50 01 61 0A
 (006.090020)  can0  101   [8]  E8 35 3F C8 00 00 3C 16
 (006.099815)  can0  100   [8]  B8 01 B0 17 50 01 62 2D
 (006.109791)  can0  100   [8]  BC 01 C4 17 50 01 63 5C
 (006.119813)  can0  100   [8]  C0 01 DC 17 50 01 64 3F
 (006.129813)  can0  100   [8]  C4 01 F0 17 50 01 65 16
 (006.139813)  can0  100   [8]  C8 01 08 18 50 01 66 EE
 (006.149812)  can0  100   [8]  CC 01 20 18 50 01 67 C3
 (006.159793)  can0  100   [8]  D0 01 34 18 50 01 68 C4
 (006.169814)  can0  100   [8]  D4 01 4C 18 50 01 69 B9
 (006.179820)  can0  100   [8]  D8 01 60 18 50 01 6A 9A
 (006.189810)  can0  100   [8]  DC 01 78 18 50 01 6B 87
 (006.190019)  can0  101   [8]  E8 35 3F C8 00 00 3D 17
 (006.199819)  can0  100   [8]  E0 01 90 18 50 01 6C 54
 (006.209812)  can0  100   [8]  E4 01 A4 18 50 01 6D 65
 (006.219812)  can0  100   [8]  E8 01 BC 18 50 01 6E 72
 (006.229805)  can0  100   [8]  EC 01 D0 18 50 01 6F 1B
 (006.239813)  can0  100   [8]  F0 01 E8 18 50 01 70 20
 (006.249809)  can0  100   [8]  F4 01 00 19 50 01 71 CC
 (006.259785)  can0  100   [8]  F8 01 14 19 50 01 72 D7
 (006.269788)  can0  100   [8]  FC 01 2C 19 50 01 73 EA
 (006.279821)  can0  100   [8]  00 02 40 19 50 01 74 7E
 (006.289811)  can0  100   [8]  04 02 58 19 50 01 75 63
 (006.290016)  can0  101   [8]  E8 35 3F C8 00 00 3E 14
 (006.299811)  can0  100   [8]  08 02 70 19 50 01 76 44
 (006.309807)  can0  100   [8]  0C 02 84 19 50 01 77 B5
 (006.319810)  can0  100   [8]  10 02 9C 19 50 01 78 BE
 (006.329808)  can0  100   [8]  14 02 B0 19 50 01 79 97
 (006.339808)  can0  100   [8]  18 02 C8 19 50 01 7A E0
 (006.349781)  can0  100   [8]  1C 02 E0 19 50 01 7B CD
 (006.359790)  can0  100   [8]  20 02 F4 19 50 01 7C E2
 (006.369813)  can0  100   [8]  24 02 0C 1A 50 01 7D 1C
 (006.379814)  can0  100   [8]  28 02 20 1A 50 01 7E 3F
 (006.389808)  can0  100   [8]  2C 02 38 1A 50 01 7F 22
 (006.390015)  can0  101   [8]  E8 35 3F C8 00 00 3F 15
 (006.399808)  can0  100   [8]  30 02 50 1A 50 01 80 A9
 (006.409807)  can0  100   [8]  34 02 64 1A 50 01 81 98
 (006.419805)  can0  100   [8]  38 02 7C 1A 50 01 82 8F
 (006.429811)  can0  100   [8]  3C 02 90 1A 50 01 83 66
 (006.439804)  can0  100   [8]  40 02 A8 1A 50 01 84 25
 (006.449797)  can0  100   [8]  44 02 C0 1A 50 01 85 48
 (006.459778)  can0  100   [8]  48 02 D4 1A 50 01 86 53
 (006.469801)  can0  100   [8]  4C 02 EC 1A 50 01 87 6E
 (006.479803)  can0  100   [8]  50 02 00 1B 50 01 88 90
 (006.489801)  can0  100   [8]  54 02 18 1B 50 01 89 8D
 (006.490015)  can0  101   [8]  E8 35 3F C8 00 00 40 6A
 (006.499799)  can0  100   [8]  58 02 30 1B 50 01 8A AA
 (006.509798)  can0  100   [8]  5C 02 44 1B 50 01 8B DB
 (006.519809)  can0  100   [8]  60 02 5C 1B 50 01 8C F8
 (006.529802)  can0  100   [8]  64 02 70 1B 50 01 8D D1
 (006.539796)  can0  100   [8]  68 02 88 1B 50 01 8E 26
 (006.549794)  can0  100   [8]  6C 02 A0 1B 50 01 8F 0B
 (006.559788)  can0  100   [8]  70 02 B4 1B 50 01 90 1C
 (006.569800)  can0  100   [8]  74 02 CC 1B 50 01 91 61
 (006.579798)  can0  100   [8]  78 02 E0 1B 50 01 92 42
 (006.589783)  can0  100   [8]  7C 02 F8 1B 50 01 93 5F
 (006.590016)  can0  101   [8]  E8 35 3F C8 00 00 41 6B
 (006.599807)  can0  100   [8]  80 02 10 1C 50 01 94 4B
 (006.609802)  can0  100   [8]  84 02 24 1C 50 01 95 7A
 (006.619798)  can0  100   [8]  88 02 3C 1C 50 01 96 6D
 (006.629801)  can0  100   [8]  8C 02 50 1C 50 01 97 04
 (006.639800)  can0  100   [8]  90 02 68 1C 50 01 98 2F
 (006.649796)  can0  100   [8]  94 02 80 1C 50 01 99 C2
 (006.659774)  can0  100   [8]  98 02 94 1C 50 01 9A D9
 (006.669802)  can0  100   [8]  9C 02 AC 1C 50 01 9B E4
 (006.679795)  can0  100   [8]  A0 02 C0 1C 50 01 9C B3
 (006.689790)  can0  100   [8]  A4 02 D8 1C 50 01 9D AE
 (006.689999)  can0  101   [8]  E8 35 3F C8 00 00 42 68
 (006.699797)  can0  100   [8]  A8 02 F0 1C 50 01 9E 89
 (006.709794)  can0  100   [8]  AC 02 04 1D 50 01 9F 79
 (006.719797)  can0  100   [8]  B0 02 1C 1D 50 01 A0 42
 (006.729796)  can0  100   [8]  B4 02 30 1D 50 01 A1 6B
 (006.739794)  can0  100   [8]  B8 02 48 1D 50 01 A2 1C
 (006.749792)  can0  100   [8]  BC 02 60 1D 50 01 A3 31
 (006.759781)  can0  100   [8]  C0 02 74 1D 50 01 A4 5E
 (006.769801)  can0  100   [8]  C4 02 8C 1D 50 01 A5 A3
 (006.779793)  can0  100   [8]  C8 02 A0 1D 50 01 A6 80
 (006.789790)  can0  100   [8]  CC 02 B8 1D 50 01 A7 9D
 (006.789997)  can0  101   [8]  E8 35 3F C8 00 00 43 69
 (006.799790)  can0  100   [8]  D0 02 D0 1D 50 01 A8 E6
 (006.809794)  can0  100   [8]  D4 02 E4 1D 50 01 A9 D7
 (006.819797)  can0  100   [8]  D8 02 FC 1D 50 01 AA C0
 (006.829776)  can0  100   [8]  DC 02 10 1E 50 01 AB 2A
 (006.839793)  can0  100   [8]  E0 02 28 1E 50 01 AC 29
 (006.849791)  can0  100   [8]  E4 02 40 1E 50 01 AD 44
 (006.859773)  can0  100   [8]  E8 02 54 1E 50 01 AE 5F
 (006.869794)  can0  100   [8]  EC 02 6C 1E 50 01 AF 62
 (006.879796)  can0  100   [8]  F0 02 80 1E 50 01 B0 8D
 (006.889790)  can0  100   [8]  F4 02 98 1E 50 01 B1 90
 (006.889992)  can0  101   [8]  E8 35 3F C8 00 00 44 6E
 (006.899791)  can0  100   [8]  F8 02 B0 1E 50 01 B2 B7
 (006.909798)  can0  100   [8]  FC 02 C4 1E 50 01 B3 C6
 (006.919792)  can0  100   [8]  00 03 DC 1E 50 01 B4 24
 (006.929795)  can0  100   [8]  04 03 F0 1E 50 01 B5 0D
 (006.939789)  can0  100   [8]  08 03 08 1F 50 01 B6 FB
 (006.949793)  can0  100   [8]  0C 03 20 1F 50 01 B7 D6
 (006.959772)  can0  100   [8]  10 03 34 1F 50 01 B8 D1
 (006.969793)  can0  100   [8]  14 03 4C 1F 50 01 B9 AC
 (006.979790)  can0  100   [8]  18 03 60 1F 50 01 BA 8F
 (006.989793)  can0  100   [8]  1C 03 78 1F 50 01 BB 92
 (006.990001)  can0  101   [8]  E8 35 3F C8 00 00 45 6F
 (006.990245)  can0  102   [8]  87 D6 12 00 02 00 06 47
 (006.999797)  can0  100   [8]  20 03 90 1F 50 01 BC 41
 (007.009792)  can0  100   [8]  24 03 A4 1F 50 01 BD 70
 (007.019804)  can0  100   [8]  28 03 BC 1F 50 01 BE 67
 (007.029791)  can0  100   [8]  2C 03 D0 1F 50 01 BF 0E
 (007.039793)  can0  100   [8]  30 03 E8 1F 50 01 C0 55
 (007.049792)  can0  100   [8]  34 03 00 20 50 01 C1 87
 (007.059769)  can0  100   [8]  38 03 14 20 50 01 C2 9C
 (007.069762)  can0  100   [8]  3C 03 2C 20 50 01 C3 A1
 (007.079798)  can0  100   [8]  40 03 40 20 50 01 C4 B6
 (007.089786)  can0  100   [8]  44 03 58 20 50 01 C5 AB
 (007.089992)  can0  101   [8]  E8 35 40 C8 00 00 46 13
 (007.099789)  can0  100   [8]  48 03 70 20 50 01 C6 8C
 (007.109784)  can0  100   [8]  4C 03 84 20 50 01 C7 7D
 (007.119780)  can0  100   [8]  50 03 9C 20 50 01 C8 76
 (007.129789)  can0  100   [8]  54 03 B0 20 50 01 C9 5F
 (007.139786)  can0  100   [8]  58 03 C8 20 50 01 CA 28
 (007.149784)  can0  100   [8]  5C 03 E0 20 50 01 CB 05
 (007.159852)  can0  100   [8]  60 03 F4 20 50 01 CC 2A
 (007.169780)  can0  100   [8]  64 03 0C 21 50 01 CD D6
 (007.179792)  can0  100   [8]  68 03 20 21 50 01 CE F5
 (007.189790)  can0  100   [8]  6C 03 38 21 50 01 CF E8
 (007.189992)  can0  101   [8]  E8 35 40 C8 00 00 47 12
 (007.199787)  can0  100   [8]  70 03 50 21 50 01 D0 83
 (007.209780)  can0  100   [8]  74 03 64 21 50 01 D1 B2
 (007.219784)  can0  100   [8]  78 03 7C 21 50 01 D2 A5
 (007.229787)  can0  100   [8]  7C 03 90 21 50 01 D3 4C
 (007.239782)  can0  100   [8]  80 03 A8 21 50 01 D4 8F
 (007.249778)  can0  100   [8]  84 03 C0 21 50 01 D5 E2
 (007.259781)  can0  100   [8]  88 03 D4 21 50 01 D6 F9
 (007.269783)  can0  100   [8]  8C 03 EC 21 50 01 D7 C4
 (007.279785)  can0  100   [8]  90 03 00 22 50 01 D8 38
 (007.289776)  can0  100   [8]  94 03 18 22 50 01 D9 25
 (007.289989)  can0  101   [8]  E8 35 40 C8 00 00 48 1D
 (007.299785)  can0  100   [8]  98 03 30 22 50 01 DA 02
 (007.309758)  can0  100   [8]  9C 03 44 22 50 01 DB 73
 (007.319780)  can0  100   [8]  A0 03 5C 22 50 01 DC 50
 (007.329777)  can0  100   [8]  A4 03 70 22 50 01 DD 79
 (007.339775)  can0  100   [8]  A8 03 88 22 50 01 DE 8E
 (007.349779)  can0  100   [8]  AC 03 A0 22 50 01 DF A3
 (007.359773)  can0  100   [8]  B0 03 B4 22 50 01 E0 94
 (007.369767)  can0  100   [8]  B4 03 CC 22 50 01 E1 E9
 (007.379778)  can0  100   [8]  B8 03 E0 22 50 01 E2 CA
 (007.389758)  can0  100   [8]  BC 03 F8 22 50 01 E3 D7
 (007.389988)  can0  101   [8]  E8 35 40 C8 00 00 49 1C
 (007.399779)  can0  100   [8]  C0 03 10 23 50 01 E4 45
 (007.409773)  can0  100   [8]  C4 03 24 23 50 01 E5 74
 (007.419773)  can0  100   [8]  C8 03 3C 23 50 01 E6 63
 (007.429778)  can0  100   [8]  CC 03 50 23 50 01 E7 0A
 (007.439780)  can0  100   [8]  D0 03 68 23 50 01 E8 21
 (007.449770)  can0  100   [8]  D4 03 80 23 50 01 E9 CC
 (007.459763)  can0  100   [8]  D8 03 94 23 50 01 EA D7
 (007.469756)  can0  100   [8]  DC 03 AC 23 50 01 EB EA
 (007.479756)  can0  100   [8]  E0 03 C0 23 50 01 EC BD
 (007.489780)  can0  100   [8]  E4 03 D8 23 50 01 ED A0
 (007.489985)  can0  101   [8]  E8 35 40 C8 00 00 4A 1F
 (007.499777)  can0  100   [8]  E8 03 F0 23 50 01 EE 87
 (007.509776)  can0  100   [8]  EC 03 04 24 50 01 EF 71
 (007.519774)  can0  100   [8]  F0 03 1C 24 50 01 F0 6A
 (007.529775)  can0  100   [8]  F4 03 30 24 50 01 F1 43
 (007.539777)  can0  100   [8]  F8 03 48 24 50 01 F2 34
 (007.549770)  can0  100   [8]  FC 03 60 24 50 01 F3 19
 (007.559774)  can0  100   [8]  00 04 74 24 50 01 F4 F1
 (007.569770)  can0  100   [8]  04 04 8C 24 50 01 F5 0C
 (007.579776)  can0  100   [8]  08 04 A0 24 50 01 F6 2F
 (007.589776)  can0  100   [8]  0C 04 B8 24 50 01 F7 32
 (007.589979)  can0  101   [8]  E8 35 40 C8 00 00 4B 1E
 (007.599776)  can0  100   [8]  10 04 D0 24 50 01 F8 49
 (007.609770)  can0  100   [8]  14 04 E4 24 50 01 F9 78
 (007.619775)  can0  100   [8]  18 04 FC 24 50 01 FA 6F
 (007.629754)  can0  100   [8]  1C 04 10 25 50 01 FB 87
 (007.639779)  can0  100   [8]  20 04 28 25 50 01 FC 84
 (007.649770)  can0  100   [8]  24 04 40 25 50 01 FD E9
 (007.659769)  can0  100   [8]  28 04 54 25 50 01 FE F2
 (007.669772)  can0  100   [8]  2C 04 6C 25 50 01 FF CF
 (007.679777)  can0  100   [8]  30 04 80 25 50 01 00 C0
 (007.689774)  can0  100   [8]  34 04 98 25 50 01 01 DD
 (007.689983)  can0  101   [8]  E8 35 40 C8 00 00 4C 19
 (007.699774)  can0  100   [8]  38 04 B0 25 50 01 02 FA
 (007.709767)  can0  100   [8]  3C 04 C4 25 50 01 03 8B
 (007.719766)  can0  100   [8]  40 04 DC 25 50 01 04 E8
 (007.729777)  can0  100   [8]  44 04 F0 25 50 01 05 C1
 (007.739770)  can0  100   [8]  48 04 08 26 50 01 06 35
 (007.749768)  can0  100   [8]  4C 04 20 26 50 01 07 18
 (007.759767)  can0  100   [8]  50 04 34 26 50 01 08 1F
 (007.769760)  can0  100   [8]  54 04 4C 26 50 01 09 62
 (007.779768)  can0  100   [8]  58 04 60 26 50 01 0A 41
 (007.789749)  can0  100   [8]  5C 04 78 26 50 01 0B 5C
 (007.789978)  can0  101   [8]  E8 35 40 C8 00 00 4D 18
 (007.799766)  can0  100   [8]  60 04 90 26 50 01 0C 8F
 (007.809762)  can0  100   [8]  64 04 A4 26 50 01 0D BE
 (007.819757)  can0  100   [8]  68 04 BC 26 50 01 0E A9
 (007.829769)  can0  100   [8]  6C 04 D0 26 50 01 0F C0
 (007.839758)  can0  100   [8]  70 04 E8 26 50 01 10 FB
 (007.849769)  can0  100   [8]  74 04 00 27 50 01 11 17
 (007.859761)  can0  100   [8]  78 04 14 27 50 01 12 0C
 (007.869759)  can0  100   [8]  7C 04 2C 27 50 01 13 31
 (007.879764)  can0  100   [8]  80 04 40 27 50 01 14 A6
 (007.889762)  can0  100   [8]  84 04 58 27 50 01 15 BB
 (007.889971)  can0  101   [8]  E8 35 40 C8 00 00 4E 1B
 (007.899767)  can0  100   [8]  88 04 70 27 50 01 16 9C
 (007.909754)  can0  100   [8]  8C 04 84 27 50 01 17 6D
 (007.919755)  can0  100   [8]  90 04 9C 27 50 01 18 66
 (007.929783)  can0  100   [8]  94 04 B0 27 50 01 19 4F
 (007.939761)  can0  100   [8]  98 04 C8 27 50 01 1A 38
 (007.949758)  can0  100   [8]  9C 04 E0 27 50 01 1B 15
 (007.959760)  can0  100   [8]  A0 04 F4 27 50 01 1C 3A
 (007.969756)  can0  100   [8]  A4 04 0C 28 50 01 1D C8
 (007.979758)  can0  100   [8]  A8 04 20 28 50 01 1E EB
 (007.989757)  can0  100   [8]  AC 04 38 28 50 01 1F F6
 (007.989968)  can0  101   [8]  E8 35 40 C8 00 00 4F 1A
 (007.990210)  can0  102   [8]  87 D6 12 00 02 00 07 46
 (007.999758)  can0  100   [8]  B0 04 50 28 50 01 20 BD
 (008.009759)  can0  100   [8]  B4 04 38 1B 50 02 21 E0
 (008.019760)  can0  100   [8]  B8 04 44 1B 50 02 22 93
 (008.029760)  can0  100   [8]  BC 04 50 1B 50 02 23 82
 (008.039758)  can0  100   [8]  C0 04 5C 1B 50 02 24 F5
 (008.049754)  can0  100   [8]  C4 04 68 1B 50 02 25 C4
 (008.059755)  can0  100   [8]  C8 04 70 1B 50 02 26 D3
 (008.069756)  can0  100   [8]  CC 04 7C 1B 50 02 27 DA
 (008.079761)  can0  100   [8]  D0 04 88 1B 50 02 28 3D
 (008.089752)  can0  100   [8]  D4 04 94 1B 50 02 29 24
 (008.089968)  can0  101   [8]  E8 35 41 C8 00 00 50 04
 (008.099758)  can0  100   [8]  D8 04 A0 1B 50 02 2A 1F
 (008.109736)  can0  100   [8]  DC 04 A8 1B 50 02 2B 12
 (008.119760)  can0  100   [8]  E0 04 B4 1B 50 02 2C 35
 (008.129757)  can0  100   [8]  E4 04 C0 1B 50 02 2D 44
 (008.139754)  can0  100   [8]  E8 04 CC 1B 50 02 2E 47
 (008.149751)  can0  100   [8]  EC 04 D8 1B 50 02 2F 56
 (008.159751)  can0  100   [8]  F0 04 E0 1B 50 02 30 6D
 (008.169750)  can0  100   [8]  F4 04 EC 1B 50 02 31 64
 (008.179769)  can0  100   [8]  F8 04 F8 1B 50 02 32 7F
 (008.189762)  can0  100   [8]  FC 04 04 1C 50 02 33 81
 (008.189972)  can0  101   [8]  E8 35 41 C8 00 00 51 05
 (008.199762)  can0  100   [8]  00 05 10 1C 50 02 34 6F
 (008.209758)  can0  100   [8]  04 05 18 1C 50 02 35 62
 (008.219756)  can0  100   [8]  08 05 24 1C 50 02 36 51
 (008.229759)  can0  100   [8]  0C 05 30 1C 50 02 37 40
 (008.239757)  can0  100   [8]  10 05 3C 1C 50 02 38 5F
 (008.249755)  can0  100   [8]  14 05 48 1C 50 02 39 2E
 (008.259754)  can0  100   [8]  18 05 50 1C 50 02 3A 39
 (008.269741)  can0  100   [8]  1C 05 5C 1C 50 02 3B 30
 (008.279762)  can0  100   [8]  20 05 68 1C 50 02 3C 3F
 (008.289753)  can0  100   [8]  24 05 74 1C 50 02 3D 26
 (008.289961)  can0  101   [8]  E8 35 41 C8 00 00 52 06
 (008.299758)  can0  100   [8]  28 05 80 1C 50 02 3E DD
 (008.309752)  can0  100   [8]  2C 05 88 1C 50 02 3F D0
 (008.319749)  can0  100   [8]  30 05 94 1C 50 02 40 AF
 (008.329754)  can0  100   [8]  34 05 A0 1C 50 02 41 9E
 (008.339750)  can0  100   [8]  38 05 AC 1C 50 02 42 9D
 (008.349735)  can0  100   [8]  3C 05 B8 1C 50 02 43 8C
 (008.359749)  can0  100   [8]  40 05 C0 1C 50 02 44 8F
 (008.369747)  can0  100   [8]  44 05 CC 1C 50 02 45 86
 (008.379748)  can0  100   [8]  48 05 D8 1C 50 02 46 9D
 (008.389766)  can0  100   [8]  4C 05 E4 1C 50 02 47 A4
 (008.389964)  can0  101   [8]  E8 35 41 C8 00 00 53 07
 (008.399751)  can0  100   [8]  50 05 F0 1C 50 02 48 A3
 (008.409752)  can0  100   [8]  54 05 F8 1C 50 02 49 AE
 (008.419749)  can0  100   [8]  58 05 04 1D 50 02 4A 5C
 (008.429726)  can0  100   [8]  5C 05 10 1D 50 02 4B 4D
 (008.439750)  can0  100   [8]  60 05 1C 1D 50 02 4C 7A
 (008.449744)  can0  100   [8]  64 05 28 1D 50 02 4D 4B
 (008.459745)  can0  100   [8]  68 05 30 1D 50 02 4E 5C
 (008.469748)  can0  100   [8]  6C 05 3C 1D 50 02 4F 55
 (008.479750)  can0  100   [8]  70 05 48 1D 50 02 50 22
 (008.489748)  can0  100   [8]  74 05 54 1D 50 02 51 3B
 (008.489961)  can0  101   [8]  E8 35 41 C8 00 00 54 00
 (008.499747)  can0  100   [8]  78 05 60 1D 50 02 52 00
 (008.509751)  can0  100   [8]  7C 05 68 1D 50 02 53 0D
 (008.519745)  can0  100   [8]  80 05 74 1D 50 02 54 EA
 (008.529753)  can0  100   [8]  84 05 80 1D 50 02 55 1B
 (008.539747)  can0  100   [8]  88 05 8C 1D 50 02 56 18
 (008.549747)  can0  100   [8]  8C 05 98 1D 50 02 57 09
 (008.559742)  can0  100   [8]  90 05 A0 1D 50 02 58 22
 (008.569744)  can0  100   [8]  94 05 AC 1D 50 02 59 2B
 (008.579745)  can0  100   [8]  98 05 B8 1D 50 02 5A 30
 (008.589748)  can0  100   [8]  9C 05 C4 1D 50 02 5B 49
 (008.589986)  can0  101   [8]  E8 35 41 C8 00 00 55 01
 (008.599747)  can0  100   [8]  A0 05 D0 1D 50 02 5C 66
 (008.609742)  can0  100   [8]  A4 05 D8 1D 50 02 5D 6B
 (008.619742)  can0  100   [8]  A8 05 E4 1D 50 02 5E 58
 (008.629752)  can0  100   [8]  AC 05 F0 1D 50 02 5F 49
 (008.639744)  can0  100   [8]  B0 05 FC 1D 50 02 60 66
 (008.649740)  can0  100   [8]  B4 05 08 1E 50 02 61 94
 (008.659740)  can0  100   [8]  B8 05 10 1E 50 02 62 83
 (008.669721)  can0  100   [8]  BC 05 1C 1E 50 02 63 8A
 (008.679747)  can0  100   [8]  C0 05 28 1E 50 02 64 C5
 (008.689745)  can0  100   [8]  C4 05 34 1E 50 02 65 DC
 (008.689951)  can0  101   [8]  E8 35 41 C8 00 00 56 02
 (008.699739)  can0  100   [8]  C8 05 40 1E 50 02 66 A7
 (008.709734)  can0  100   [8]  CC 05 48 1E 50 02 67 AA
 (008.719737)  can0  100   [8]  D0 05 54 1E 50 02 68 A5
 (008.729739)  can0  100   [8]  D4 05 60 1E 50 02 69 94
 (008.739745)  can0  100   [8]  D8 05 6C 1E 50 02 6A 97
 (008.749740)  can0  100   [8]  DC 05 78 1E 50 02 6B 86
 (008.759746)  can0  100   [8]  E0 05 80 1E 50 02 6C 45
 (008.769739)  can0  100   [8]  E4 05 8C 1E 50 02 6D 4C
 (008.779740)  can0  100   [8]  E8 05 98 1E 50 02 6E 57
 (008.789738)  can0  100   [8]  EC 05 A4 1E 50 02 6F 6E
 (008.789953)  can0  101   [8]  E8 35 41 C8 00 00 57 03
 (008.799740)  can0  100   [8]  F0 05 B0 1E 50 02 70 79
 (008.809736)  can0  100   [8]  F4 05 B8 1E 50 02 71 74
 (008.819741)  can0  100   [8]  F8 05 C4 1E 50 02 72 07
 (008.829717)  can0  100   [8]  FC 05 D0 1E 50 02 73 16
 (008.839742)  can0  100   [8]  00 06 DC 1E 50 02 74 E2
 (008.849737)  can0  100   [8]  04 06 E8 1E 50 02 75 D3
 (008.859736)  can0  100   [8]  08 06 F0 1E 50 02 76 C4
 (008.869721)  can0  100   [8]  0C 06 FC 1E 50 02 77 CD
 (008.879745)  can0  100   [8]  10 06 08 1F 50 02 78 2B
 (008.889735)  can0  100   [8]  14 06 14 1F 50 02 79 32
 (008.889943)  can0  101   [8]  E8 35 41 C8 00 00 58 0C
 (008.899737)  can0  100   [8]  18 06 20 1F 50 02 7A 09
 (008.909719)  can0  100   [8]  1C 06 28 1F 50 02 7B 04
 (008.919754)  can0  100   [8]  20 06 34 1F 50 02 7C 23
 (008.929738)  can0  100   [8]  24 06 40 1F 50 02 7D 52
 (008.939739)  can0  100   [8]  28 06 4C 1F 50 02 7E 51
 (008.949740)  can0  100   [8]  2C 06 58 1F 50 02 7F 40
 (008.959734)  can0  100   [8]  30 06 60 1F 50 02 80 9B
 (008.969720)  can0  100   [8]  34 06 6C 1F 50 02 81 92
 (008.979740)  can0  100   [8]  38 06 78 1F 50 02 82 89
 (008.989741)  can0  100   [8]  3C 06 84 1F 50 02 83 70
 (008.989946)  can0  101   [8]  E8 35 41 C8 00 00 59 0D
 (008.990186)  can0  102   [8]  87 D6 12 00 02 00 08 49
 (008.999738)  can0  100   [8]  40 06 90 1F 50 02 84 1F
 (009.009734)  can0  100   [8]  44 06 98 1F 50 02 85 12
 (009.019727)  can0  100   [8]  48 06 A4 1F 50 02 86 21
 (009.029732)  can0  100   [8]  4C 06 B0 1F 50 02 87 30
 (009.039730)  can0  100   [8]  50 06 BC 1F 50 02 88 2F
 (009.049735)  can0  100   [8]  54 06 C8 1F 50 02 89 5E
 (009.059729)  can0  100   [8]  58 06 D0 1F 50 02 8A 49
 (009.069712)  can0  100   [8]  5C 06 DC 1F 50 02 8B 40
 (009.079732)  can0  100   [8]  60 06 E8 1F 50 02 8C 4F
 (009.089724)  can0  100   [8]  64 06 F4 1F 50 02 8D 56
 (009.089939)  can0  101   [8]  E8 35 42 C8 00 00 5A 0D
 (009.099736)  can0  100   [8]  68 06 00 20 50 02 8E 92
 (009.109741)  can0  100   [8]  6C 06 08 20 50 02 8F 9F
 (009.119727)  can0  100   [8]  70 06 14 20 50 02 90 80
 (009.129729)  can0  100   [8]  74 06 20 20 50 02 91 B1
 (009.139728)  can0  100   [8]  78 06 2C 20 50 02 92 B2
 (009.149709)  can0  100   [8]  7C 06 38 20 50 02 93 A3
 (009.159731)  can0  100   [8]  80 06 40 20 50 02 94 20
 (009.169705)  can0  100   [8]  84 06 4C 20 50 02 95 29
 (009.179739)  can0  100   [8]  88 06 58 20 50 02 96 32
 (009.189729)  can0  100   [8]  8C 06 64 20 50 02 97 0B
 (009.189930)  can0  101   [8]  E8 35 42 C8 00 00 5B 0C
 (009.199730)  can0  100   [8]  90 06 70 20 50 02 98 0C
 (009.209730)  can0  100   [8]  94 06 78 20 50 02 99 01
 (009.219726)  can0  100   [8]  98 06 84 20 50 02 9A F2
 (009.229726)  can0  100   [8]  9C 06 90 20 50 02 9B E3
 (009.239732)  can0  100   [8]  A0 06 9C 20 50 02 9C D4
 (009.249725)  can0  100   [8]  A4 06 A8 20 50 02 9D E5
 (009.259723)  can0  100   [8]  A8 06 B0 20 50 02 9E F2
 (009.269702)  can0  100   [8]  AC 06 BC 20 50 02 9F FB
 (009.279729)  can0  100   [8]  B0 06 C8 20 50 02 A0 AC
 (009.289725)  can0  100   [8]  B4 06 D4 20 50 02 A1 B5
 (009.289932)  can0  101   [8]  E8 35 42 C8 00 00 5C 0B
 (009.299726)  can0  100   [8]  B8 06 E0 20 50 02 A2 8E
 (009.309730)  can0  100   [8]  BC 06 E8 20 50 02 A3 83
 (009.319741)  can0  100   [8]  C0 06 F4 20 50 02 A4 E4
 (009.329726)  can0  100   [8]  C4 06 00 21 50 02 A5 14
 (009.339716)  can0  100   [8]  C8 06 0C 21 50 02 A6 17
 (009.349721)  can0  100   [8]  CC 06 18 21 50 02 A7 06
 (009.359727)  can0  100   [8]  D0 06 20 21 50 02 A8 2D
 (009.369696)  can0  100   [8]  D4 06 2C 21 50 02 A9 24
 (009.379728)  can0  100   [8]  D8 06 38 21 50 02 AA 3F
 (009.389699)  can0  100   [8]  DC 06 44 21 50 02 AB 46
 (009.389925)  can0  101   [8]  E8 35 42 C8 00 00 5D 0A
 (009.399723)  can0  100   [8]  E0 06 50 21 50 02 AC 69
 (009.409721)  can0  100   [8]  E4 06 58 21 50 02 AD 64
 (009.419720)  can0  100   [8]  E8 06 64 21 50 02 AE 57
 (009.429724)  can0  100   [8]  EC 06 70 21 50 02 AF 46
 (009.439724)  can0  100   [8]  F0 06 7C 21 50 02 B0 49
 (009.449718)  can0  100   [8]  F4 06 88 21 50 02 B1 B8
 (009.459716)  can0  100   [8]  F8 06 90 21 50 02 B2 AF
 (009.469698)  can0  100   [8]  FC 06 9C 21 50 02 B3 A6
 (009.479731)  can0  100   [8]  00 07 A8 21 50 02 B4 68
 (009.489723)  can0  100   [8]  04 07 B4 21 50 02 B5 71
 (009.489931)  can0  101   [8]  E8 35 42 C8 00 00 5E 09
 (009.499725)  can0  100   [8]  08 07 C0 21 50 02 B6 0A
 (009.509720)  can0  100   [8]  0C 07 C8 21 50 02 B7 07
 (009.519723)  can0  100   [8]  10 07 D4 21 50 02 B8 08
 (009.529724)  can0  100   [8]  14 07 E0 21 50 02 B9 39
 (009.539717)  can0  100   [8]  18 07 EC 21 50 02 BA 3A
 (009.549720)  can0  100   [8]  1C 07 F8 21 50 02 BB 2B
 (009.559720)  can0  100   [8]  20 07 00 22 50 02 BC EB
 (009.569693)  can0  100   [8]  24 07 0C 22 50 02 BD E2
 (009.579720)  can0  100   [8]  28 07 18 22 50 02 BE F9
 (009.589724)  can0  100   [8]  2C 07 24 22 50 02 BF C0
 (009.589927)  can0  101   [8]  E8 35 42 C8 00 00 5F 08
 (009.599721)  can0  100   [8]  30 07 30 22 50 02 C0 B7
 (009.609711)  can0  100   [8]  34 07 38 22 50 02 C1 BA
 (009.619710)  can0  100   [8]  38 07 44 22 50 02 C2 C9
 (009.629718)  can0  100   [8]  3C 07 50 22 50 02 C3 D8
 (009.639713)  can0  100   [8]  40 07 5C 22 50 02 C4 AF
 (009.649711)  can0  100   [8]  44 07 68 22 50 02 C5 9E
 (009.659711)  can0  100   [8]  48 07 70 22 50 02 C6 89
 (009.669694)  can0  100   [8]  4C 07 7C 22 50 02 C7 80
 (009.679719)  can0  100   [8]  50 07 88 22 50 02 C8 67
 (009.689713)  can0  100   [8]  54 07 94 22 50 02 C9 7E
 (009.689920)  can0  101   [8]  E8 35 42 C8 00 00 60 37
 (009.699711)  can0  100   [8]  58 07 A0 22 50 02 CA 45
 (009.709690)  can0  100   [8]  5C 07 A8 22 50 02 CB 48
 (009.719713)  can0  100   [8]  60 07 B4 22 50 02 CC 6F
 (009.729710)  can0  100   [8]  64 07 C0 22 50 02 CD 1E
 (009.739708)  can0  100   [8]  68 07 CC 22 50 02 CE 1D
 (009.749712)  can0  100   [8]  6C 07 D8 22 50 02 CF 0C
 (009.759710)  can0  100   [8]  70 07 E0 22 50 02 D0 37
 (009.769689)  can0  100   [8]  74 07 EC 22 50 02 D1 3E
 (009.779715)  can0  100   [8]  78 07 F8 22 50 02 D2 25
 (009.789705)  can0  100   [8]  7C 07 04 23 50 02 D3 DD
 (009.789916)  can0  101   [8]  E8 35 42 C8 00 00 61 36
 (009.799713)  can0  100   [8]  80 07 10 23 50 02 D4 32
 (009.809708)  can0  100   [8]  84 07 18 23 50 02 D5 3F
 (009.819707)  can0  100   [8]  88 07 24 23 50 02 D6 0C
 (009.829709)  can0  100   [8]  8C 07 30 23 50 02 D7 1D
 (009.839710)  can0  100   [8]  90 07 3C 23 50 02 D8 02
 (009.849704)  can0  100   [8]  94 07 48 23 50 02 D9 73
 (009.859710)  can0  100   [8]  98 07 50 23 50 02 DA 64
 (009.869684)  can0  100   [8]  9C 07 5C 23 50 02 DB 6D
 (009.879711)  can0  100   [8]  A0 07 68 23 50 02 DC 62
 (009.889704)  can0  100   [8]  A4 07 74 23 50 02 DD 7B
 (009.889909)  can0  101   [8]  E8 35 42 C8 00 00 62 35
 (009.899712)  can0  100   [8]  A8 07 80 23 50 02 DE 80
 (009.909707)  can0  100   [8]  AC 07 88 23 50 02 DF 8D
 (009.919704)  can0  100   [8]  B0 07 94 23 50 02 E0 B2
 (009.929710)  can0  100   [8]  B4 07 A0 23 50 02 E1 83
 (009.939700)  can0  100   [8]  B8 07 AC 23 50 02 E2 80
 (009.949703)  can0  100   [8]  BC 07 B8 23 50 02 E3 91
 (009.959705)  can0  100   [8]  C0 07 C0 23 50 02 E4 92
 (009.969685)  can0  100   [8]  C4 07 CC 23 50 02 E5 9B
 (009.979708)  can0  100   [8]  C8 07 D8 23 50 02 E6 80
 (009.989704)  can0  100   [8]  CC 07 E4 23 50 02 E7 B9
 (009.989911)  can0  101   [8]  E8 35 42 C8 00 00 63 34
 (009.990154)  can0  102   [8]  87 D6 12 00 02 00 09 48
 (009.999708)  can0  100   [8]  D0 07 F0 23 50 02 E8 BE
 (010.009704)  can0  100   [8]  D4 07 F8 23 50 02 E9 B3
 (010.019699)  can0  100   [8]  D8 07 04 24 50 02 EA 47
 (010.029702)  can0  100   [8]  DC 07 10 24 50 02 EB 56
 (010.039702)  can0  100   [8]  E0 07 1C 24 50 02 EC 61
 (010.049697)  can0  100   [8]  E4 07 28 24 50 02 ED 50
 (010.059703)  can0  100   [8]  E8 07 30 24 50 02 EE 47
 (010.069679)  can0  100   [8]  EC 07 3C 24 50 02 EF 4E
 (010.079705)  can0  100   [8]  F0 07 48 24 50 02 F0 39
 (010.089699)  can0  100   [8]  F4 07 54 24 50 02 F1 20
 (010.089908)  can0  101   [8]  E8 35 43 C8 00 00 64 32
 (010.099699)  can0  100   [8]  F8 07 60 24 50 02 F2 1B
 (010.109702)  can0  100   [8]  FC 07 68 24 50 02 F3 16
 (010.119700)  can0  100   [8]  00 08 74 24 50 02 F4 FE
 (010.129704)  can0  100   [8]  04 08 80 24 50 02 F5 0F
 (010.139704)  can0  100   [8]  08 08 8C 24 50 02 F6 0C
 (010.149696)  can0  100   [8]  0C 08 98 24 50 02 F7 1D
 (010.159702)  can0  100   [8]  10 08 A0 24 50 02 F8 36
 (010.169687)  can0  100   [8]  14 08 AC 24 50 02 F9 3F
 (010.179712)  can0  100   [8]  18 08 B8 24 50 02 FA 24
 (010.189683)  can0  100   [8]  1C 08 C4 24 50 02 FB 5D
 (010.189908)  can0  101   [8]  E8 35 43 C8 00 00 65 33
 (010.199709)  can0  100   [8]  20 08 D0 24 50 02 FC 72
 (010.209706)  can0  100   [8]  24 08 D8 24 50 02 FD 7F
 (010.219698)  can0  100   [8]  28 08 E4 24 50 02 FE 4C
 (010.229703)  can0  100   [8]  2C 08 F0 24 50 02 FF 5D
 (010.239700)  can0  100   [8]  30 08 FC 24 50 02 00 B2
 (010.249706)  can0  100   [8]  34 08 08 25 50 02 01 42
 (010.259701)  can0  100   [8]  38 08 10 25 50 02 02 55
 (010.269781)  can0  100   [8]  3C 08 1C 25 50 02 03 5C
 (010.279707)  can0  100   [8]  40 08 28 25 50 02 04 13
 (010.289695)  can0  100   [8]  44 08 34 25 50 02 05 0A
 (010.289901)  can0  101   [8]  E8 35 43 C8 00 00 66 30
 (010.299698)  can0  100   [8]  48 08 40 25 50 02 06 71
 (010.309697)  can0  100   [8]  4C 08 48 25 50 02 07 7C
 (010.319695)  can0  100   [8]  50 08 54 25 50 02 08 73
 (010.329698)  can0  100   [8]  54 08 60 25 50 02 09 42
 (010.339694)  can0  100   [8]  58 08 6C 25 50 02 0A 41
 (010.349699)  can0  100   [8]  5C 08 78 25 50 02 0B 50
 (010.359696)  can0  100   [8]  60 08 80 25 50 02 0C 93
 (010.369691)  can0  100   [8]  64 08 8C 25 50 02 0D 9A
 (010.379691)  can0  100   [8]  68 08 98 25 50 02 0E 81
 (010.389694)  can0  100   [8]  6C 08 A4 25 50 02 0F B8
 (010.389901)  can0  101   [8]  E8 35 43 C8 00 00 67 31
 (010.399695)  can0  100   [8]  70 08 B0 25 50 02 10 AF
 (010.409693)  can0  100   [8]  74 08 B8 25 50 02 11 A2
 (010.419687)  can0  100   [8]  78 08 C4 25 50 02 12 D1
 (010.429674)  can0  100   [8]  7C 08 D0 25 50 02 13 C0
 (010.439692)  can0  100   [8]  80 08 DC 25 50 02 14 37
 (010.449695)  can0  100   [8]  84 08 E8 25 50 02 15 06
 (010.459695)  can0  100   [8]  88 08 F0 25 50 02 16 11
 (010.469694)  can0  100   [8]  8C 08 FC 25 50 02 17 18
 (010.479691)  can0  100   [8]  90 08 08 26 50 02 18 FC
 (010.489695)  can0  100   [8]  94 08 14 26 50 02 19 E5
 (010.489897)  can0  101   [8]  E8 35 43 C8 00 00 68 3E
 (010.499688)  can0  100   [8]  98 08 20 26 50 02 1A DE
 (010.509667)  can0  100   [8]  9C 08 28 26 50 02 1B D3
 (010.519689)  can0  100   [8]  A0 08 34 26 50 02 1C F4
 (010.529690)  can0  100   [8]  A4 08 40 26 50 02 1D 85
 (010.539689)  can0  100   [8]  A8 08 4C 26 50 02 1E 86
 (010.549689)  can0  100   [8]  AC 08 58 26 50 02 1F 97
 (010.559695)  can0  100   [8]  B0 08 60 26 50 02 20 8C
 (010.569685)  can0  100   [8]  B4 08 6C 26 50 02 21 85
 (010.579683)  can0  100   [8]  B8 08 78 26 50 02 22 9E
 (010.589689)  can0  100   [8]  BC 08 84 26 50 02 23 67
 (010.589894)  can0  101   [8]  E8 35 43 C8 00 00 69 3F
 (010.599691)  can0  100   [8]  C0 08 90 26 50 02 24 08
 (010.609686)  can0  100   [8]  C4 08 98 26 50 02 25 05
 (010.619682)  can0  100   [8]  C8 08 A4 26 50 02 26 36
 (010.629687)  can0  100   [8]  CC 08 B0 26 50 02 27 27
 (010.639683)  can0  100   [8]  D0 08 BC 26 50 02 28 38
 (010.649684)  can0  100   [8]  D4 08 C8 26 50 02 29 49
 (010.659684)  can0  100   [8]  D8 08 D0 26 50 02 2A 5E
 (010.669677)  can0  100   [8]  DC 08 DC 26 50 02 2B 57
 (010.679685)  can0  100   [8]  E0 08 E8 26 50 02 2C 58
 (010.689684)  can0  100   [8]  E4 08 F4 26 50 02 2D 41
 (010.689892)  can0  101   [8]  E8 35 43 C8 00 00 6A 3C
 (010.699684)  can0  100   [8]  E8 08 00 27 50 02 2E BB
 (010.709686)  can0  100   [8]  EC 08 08 27 50 02 2F B6
 (010.719681)  can0  100   [8]  F0 08 14 27 50 02 30 A9
 (010.729687)  can0  100   [8]  F4 08 20 27 50 02 31 98
 (010.739687)  can0  100   [8]  F8 08 2C 27 50 02 32 9B
 (010.749706)  can0  100   [8]  FC 08 38 27 50 02 33 8A
 (010.759707)  can0  100   [8]  00 09 40 27 50 02 34 08
 (010.769686)  can0  100   [8]  04 09 4C 27 50 02 35 01
 (010.779683)  can0  100   [8]  08 09 58 27 50 02 36 1A
 (010.789679)  can0  100   [8]  0C 09 64 27 50 02 37 23
 (010.789884)  can0  101   [8]  E8 35 43 C8 00 00 6B 3D
 (010.799687)  can0  100   [8]  10 09 70 27 50 02 38 24
 (010.809685)  can0  100   [8]  14 09 78 27 50 02 39 29
 (010.819679)  can0  100   [8]  18 09 84 27 50 02 3A DA
 (010.829666)  can0  100   [8]  1C 09 90 27 50 02 3B CB
 (010.839684)  can0  100   [8]  20 09 9C 27 50 02 3C FC
 (010.849681)  can0  100   [8]  24 09 A8 27 50 02 3D CD
 (010.859683)  can0  100   [8]  28 09 B0 27 50 02 3E DA
 (010.869679)  can0  100   [8]  2C 09 BC 27 50 02 3F D3
 (010.879680)  can0  100   [8]  30 09 C8 27 50 02 40 C4
 (010.889680)  can0  100   [8]  34 09 D4 27 50 02 41 DD
 (010.889879)  can0  101   [8]  E8 35 43 C8 00 00 6C 3A
 (010.899683)  can0  100   [8]  38 09 E0 27 50 02 42 E6
 (010.909690)  can0  100   [8]  3C 09 E8 27 50 02 43 EB
 (010.919679)  can0  100   [8]  40 09 F4 27 50 02 44 8C
 (010.929681)  can0  100   [8]  44 09 00 28 50 02 45 72
 (010.939678)  can0  100   [8]  48 09 0C 28 50 02 46 71
 (010.949677)  can0  100   [8]  4C 09 18 28 50 02 47 60
 (010.959673)  can0  100   [8]  50 09 20 28 50 02 48 4B
 (010.969671)  can0  100   [8]  54 09 2C 28 50 02 49 42
 (010.979672)  can0  100   [8]  58 09 38 28 50 02 4A 59
 (010.989658)  can0  100   [8]  5C 09 44 28 50 02 4B 20
 (010.989880)  can0  101   [8]  E8 35 43 C8 00 00 6D 3B
 (010.990123)  can0  102   [8]  87 D6 12 00 02 00 0A 4B
 (010.999677)  can0  100   [8]  60 09 50 28 50 02 4C 0F
 (011.009675)  can0  100   [8]  64 09 58 28 50 02 4D 02
 (011.019674)  can0  100   [8]  68 09 64 28 50 02 4E 31
 (011.029682)  can0  100   [8]  6C 09 70 28 50 02 4F 20
 (011.039681)  can0  100   [8]  70 09 7C 28 50 02 50 2F
 (011.049671)  can0  100   [8]  74 09 88 28 50 02 51 DE
 (011.059673)  can0  100   [8]  78 09 90 28 50 02 52 C9
 (011.069677)  can0  100   [8]  7C 09 9C 28 50 02 53 C0
 (011.079675)  can0  100   [8]  80 09 A8 28 50 02 54 0F
 (011.089674)  can0  100   [8]  84 09 B4 28 50 02 55 16
 (011.089885)  can0  101   [8]  E8 35 44 C8 00 00 6E 3F
 (011.099671)  can0  100   [8]  88 09 C0 28 50 02 56 6D
 (011.109674)  can0  100   [8]  8C 09 C8 28 50 02 57 60
 (011.119669)  can0  100   [8]  90 09 D4 28 50 02 58 6F
 (011.129671)  can0  100   [8]  94 09 E0 28 50 02 59 5E
 (011.139669)  can0  100   [8]  98 09 EC 28 50 02 5A 5D
 (011.149672)  can0  100   [8]  9C 09 F8 28 50 02 5B 4C
 (011.159669)  can0  100   [8]  A0 09 00 29 50 02 5C 8E
 (011.169668)  can0  100   [8]  A4 09 0C 29 50 02 5D 87
 (011.179680)  can0  100   [8]  A8 09 18 29 50 02 5E 9C
 (011.189675)  can0  100   [8]  AC 09 24 29 50 02 5F A5
 (011.189879)  can0  101   [8]  E8 35 44 C8 00 00 6F 3E
 (011.199667)  can0  100   [8]  B0 09 30 29 50 02 60 92
 (011.209677)  can0  100   [8]  B4 09 38 29 50 02 61 9F
 (011.219670)  can0  100   [8]  B8 09 44 29 50 02 62 EC
 (011.229652)  can0  100   [8]  BC 09 50 29 50 02 63 FD
 (011.239673)  can0  100   [8]  C0 09 5C 29 50 02 64 8A
 (011.249667)  can0  100   [8]  C4 09 68 29 50 02 65 BB
 (011.259664)  can0  100   [8]  C8 09 A8 1F 50 03 66 43
 (011.269671)  can0  100   [8]  CC 09 B0 1F 50 03 67 5E
 (011.279668)  can0  100   [8]  D0 09 B8 1F 50 03 68 45
 (011.289670)  can0  100   [8]  D4 09 C0 1F 50 03 69 38
 (011.289873)  can0  101   [8]  E8 35 44 C8 00 00 70 21
 (011.299676)  can0  100   [8]  D8 09 C8 1F 50 03 6A 3F
 (011.309671)  can0  100   [8]  DC 09 CC 1F 50 03 6B 3E
 (011.319667)  can0  100   [8]  E0 09 D4 1F 50 03 6C 1D
 (011.329674)  can0  100   [8]  E4 09 DC 1F 50 03 6D 10
 (011.339669)  can0  100   [8]  E8 09 E4 1F 50 03 6E 27
 (011.349668)  can0  100   [8]  EC 09 EC 1F 50 03 6F 2A
 (011.359675)  can0  100   [8]  F0 09 F0 1F 50 03 70 35
 (011.369669)  can0  100   [8]  F4 09 F8 1F 50 03 71 38
 (011.379674)  can0  100   [8]  F8 09 00 20 50 03 72 F0
 (011.389668)  can0  100   [8]  FC 09 08 20 50 03 73 FD
 (011.389878)  can0  101   [8]  E8 35 44 C8 00 00 71 20
 (011.399675)  can0  100   [8]  00 0A 10 20 50 03 74 1D
 (011.409664)  can0  100   [8]  04 0A 14 20 50 03 75 1C
 (011.419658)  can0  100   [8]  08 0A 1C 20 50 03 76 1B
 (011.429665)  can0  100   [8]  0C 0A 24 20 50 03 77 26
 (011.439670)  can0  100   [8]  10 0A 2C 20 50 03 78 3D
 (011.449667)  can0  100   [8]  14 0A 34 20 50 03 79 20
 (011.459665)  can0  100   [8]  18 0A 38 20 50 03 7A 23
 (011.469641)  can0  100   [8]  1C 0A 40 20 50 03 7B 5E
 (011.479672)  can0  100   [8]  20 0A 48 20 50 03 7C 6D
 (011.489670)  can0  100   [8]  24 0A 50 20 50 03 7D 70
 (011.489869)  can0  101   [8]  E8 35 44 C8 00 00 72 23
 (011.499667)  can0  100   [8]  28 0A 58 20 50 03 7E 77
 (011.509665)  can0  100   [8]  2C 0A 5C 20 50 03 7F 76
 (011.519671)  can0  100   [8]  30 0A 64 20 50 03 80 AD
 (011.529666)  can0  100   [8]  34 0A 6C 20 50 03 81 A0
 (011.539663)  can0  100   [8]  38 0A 74 20 50 03 82 B7
 (011.549651)  can0  100   [8]  3C 0A 7C 20 50 03 83 BA
 (011.559668)  can0  100   [8]  40 0A 80 20 50 03 84 3D
 (011.569660)  can0  100   [8]  44 0A 88 20 50 03 85 30
 (011.579657)  can0  100   [8]  48 0A 90 20 50 03 86 27
 (011.589663)  can0  100   [8]  4C 0A 98 20 50 03 87 2A
 (011.589864)  can0  101   [8]  E8 35 44 C8 00 00 73 22
 (011.599662)  can0  100   [8]  50 0A A0 20 50 03 88 01
 (011.609661)  can0  100   [8]  54 0A A4 20 50 03 89 00
 (011.619663)  can0  100   [8]  58 0A AC 20 50 03 8A 07
 (011.629661)  can0  100   [8]  5C 0A B4 20 50 03 8B 1A
 (011.639653)  can0  100   [8]  60 0A BC 20 50 03 8C 29
 (011.649658)  can0  100   [8]  64 0A C4 20 50 03 8D 54
 (011.659662)  can0  100   [8]  68 0A C8 20 50 03 8E 57
 (011.669661)  can0  100   [8]  6C 0A D0 20 50 03 8F 4A
 (011.679663)  can0  100   [8]  70 0A D8 20 50 03 90 41
 (011.689662)  can0  100   [8]  74 0A E0 20 50 03 91 7C
 (011.689866)  can0  101   [8]  E8 35 44 C8 00 00 74 25
 (011.699674)  can0  100   [8]  78 0A E8 20 50 03 92 7B
 (011.709659)  can0  100   [8]  7C 0A EC 20 50 03 93 7A
 (011.719658)  can0  100   [8]  80 0A F4 20 50 03 94 99
 (011.729660)  can0  100   [8]  84 0A FC 20 50 03 95 94
 (011.739653)  can0  100   [8]  88 0A 04 21 50 03 96 62
 (011.749651)  can0  100   [8]  8C 0A 0C 21 50 03 97 6F
 (011.759659)  can0  100   [8]  90 0A 10 21 50 03 98 60
 (011.769649)  can0  100   [8]  94 0A 18 21 50 03 99 6D
 (011.779650)  can0  100   [8]  98 0A 20 21 50 03 9A 5A
 (011.789635)  can0  100   [8]  9C 0A 28 21 50 03 9B 57
 (011.789861)  can0  101   [8]  E8 35 44 C8 00 00 75 24
 (011.799657)  can0  100   [8]  A0 0A 30 21 50 03 9C 74
 (011.809652)  can0  100   [8]  A4 0A 34 21 50 03 9D 75
 (011.819647)  can0  100   [8]  A8 0A 3C 21 50 03 9E 72
 (011.829658)  can0  100   [8]  AC 0A 44 21 50 03 9F 0F
 (011.839652)  can0  100   [8]  B0 0A 4C 21 50 03 A0 24
 (011.849646)  can0  100   [8]  B4 0A 54 21 50 03 A1 39
 (011.859647)  can0  100   [8]  B8 0A 58 21 50 03 A2 3A
 (011.869654)  can0  100   [8]  BC 0A 60 21 50 03 A3 07
 (011.879649)  can0  100   [8]  C0 0A 68 21 50 03 A4 74
 (011.889652)  can0  100   [8]  C4 0A 70 21 50 03 A5 69
 (011.889854)  can0  101   [8]  E8 35 44 C8 00 00 76 27
 (011.899654)  can0  100   [8]  C8 0A 78 21 50 03 A6 6E
 (011.909647)  can0  100   [8]  CC 0A 7C 21 50 03 A7 6F
 (011.919649)  can0  100   [8]  D0 0A 84 21 50 03 A8 84
 (011.929644)  can0  100   [8]  D4 0A 8C 21 50 03 A9 89
 (011.939642)  can0  100   [8]  D8 0A 94 21 50 03 AA 9E
 (011.949649)  can0  100   [8]  DC 0A 9C 21 50 03 AB 93
 (011.959643)  can0  100   [8]  E0 0A A0 21 50 03 AC 94
 (011.969641)  can0  100   [8]  E4 0A A8 21 50 03 AD 99
 (011.979649)  can0  100   [8]  E8 0A B0 21 50 03 AE 8E
 (011.989651)  can0  100   [8]  EC 0A B8 21 50 03 AF 83
 (011.989854)  can0  101   [8]  E8 35 44 C8 00 00 77 26
 (011.990096)  can0  102   [8]  87 D6 12 00 02 00 0B 4A
 (011.999648)  can0  100   [8]  F0 0A C0 21 50 03 B0 F8
 (012.009643)  can0  100   [8]  F4 0A C4 21 50 03 B1 F9
 (012.019645)  can0  100   [8]  F8 0A CC 21 50 03 B2 FE
 (012.029649)  can0  100   [8]  FC 0A D4 21 50 03 B3 E3
 (012.039651)  can0  100   [8]  00 0B DC 21 50 03 B4 11
 (012.049645)  can0  100   [8]  04 0B E4 21 50 03 B5 2C
 (012.059648)  can0  100   [8]  08 0B E8 21 50 03 B6 2F
 (012.069647)  can0  100   [8]  0C 0B F0 21 50 03 B7 32
 (012.079630)  can0  100   [8]  10 0B F8 21 50 03 B8 29
 (012.089653)  can0  100   [8]  14 0B 00 22 50 03 B9 D7
 (012.089860)  can0  101   [8]  E8 35 45 C8 00 00 78 28
 (012.099645)  can0  100   [8]  18 0B 08 22 50 03 BA D0
 (012.109646)  can0  100   [8]  1C 0B 0C 22 50 03 BB D1
 (012.119642)  can0  100   [8]  20 0B 14 22 50 03 BC F2
 (012.129645)  can0  100   [8]  24 0B 1C 22 50 03 BD FF
 (012.139646)  can0  100   [8]  28 0B 24 22 50 03 BE C8
 (012.149643)  can0  100   [8]  2C 0B 2C 22 50 03 BF C5
 (012.159644)  can0  100   [8]  30 0B 30 22 50 03 C0 BA
 (012.169646)  can0  100   [8]  34 0B 38 22 50 03 C1 B7
 (012.179651)  can0  100   [8]  38 0B 40 22 50 03 C2 C0
 (012.189659)  can0  100   [8]  3C 0B 48 22 50 03 C3 CD
 (012.189858)  can0  101   [8]  E8 35 45 C8 00 00 79 29
 (012.199647)  can0  100   [8]  40 0B 50 22 50 03 C4 AE
 (012.209644)  can0  100   [8]  44 0B 54 22 50 03 C5 AF
 (012.219639)  can0  100   [8]  48 0B 5C 22 50 03 C6 A8
 (012.229647)  can0  100   [8]  4C 0B 64 22 50 03 C7 95
 (012.239640)  can0  100   [8]  50 0B 6C 22 50 03 C8 8E
 (012.249640)  can0  100   [8]  54 0B 74 22 50 03 C9 93
 (012.259639)  can0  100   [8]  58 0B 78 22 50 03 CA 90
 (012.269620)  can0  100   [8]  5C 0B 80 22 50 03 CB 6D
 (012.279620)  can0  100   [8]  60 0B 88 22 50 03 CC 5E
 (012.289642)  can0  100   [8]  64 0B 90 22 50 03 CD 43
 (012.289846)  can0  101   [8]  E8 35 45 C8 00 00 7A 2A
 (012.299640)  can0  100   [8]  68 0B 98 22 50 03 CE 44
 (012.309635)  can0  100   [8]  6C 0B 9C 22 50 03 CF 45
 (012.319643)  can0  100   [8]  70 0B A4 22 50 03 D0 7E
 (012.329646)  can0  100   [8]  74 0B AC 22 50 03 D1 73
 (012.339637)  can0  100   [8]  78 0B B4 22 50 03 D2 64
 (012.349640)  can0  100   [8]  7C 0B BC 22 50 03 D3 69
 (012.359645)  can0  100   [8]  80 0B C0 22 50 03 D4 EE
 (012.369643)  can0  100   [8]  84 0B C8 22 50 03 D5 E3
 (012.379619)  can0  100   [8]  88 0B D0 22 50 03 D6 F4
 (012.389638)  can0  100   [8]  8C 0B D8 22 50 03 D7 F9
 (012.389847)  can0  101   [8]  E8 35 45 C8 00 00 7B 2B
 (012.399642)  can0  100   [8]  90 0B E0 22 50 03 D8 D2
 (012.409634)  can0  100   [8]  94 0B E4 22 50 03 D9 D3
 (012.419635)  can0  100   [8]  98 0B EC 22 50 03 DA D4
 (012.429638)  can0  100   [8]  9C 0B F4 22 50 03 DB C9
 (012.439638)  can0  100   [8]  A0 0B FC 22 50 03 DC FA
 (012.449637)  can0  100   [8]  A4 0B 04 23 50 03 DD 06
 (012.459633)  can0  100   [8]  A8 0B 08 23 50 03 DE 05
 (012.469640)  can0  100   [8]  AC 0B 10 23 50 03 DF 18
 (012.479615)  can0  100   [8]  B0 0B 18 23 50 03 E0 33
 (012.489637)  can0  100   [8]  B4 0B 20 23 50 03 E1 0E
 (012.489843)  can0  101   [8]  E8 35 45 C8 00 00 7C 2C
 (012.499637)  can0  100   [8]  B8 0B 28 23 50 03 E2 09
 (012.509614)  can0  100   [8]  BC 0B 2C 23 50 03 E3 08
 (012.519636)  can0  100   [8]  C0 0B 34 23 50 03 E4 6B
 (012.529641)  can0  100   [8]  C4 0B 3C 23 50 03 E5 66
 (012.539634)  can0  100   [8]  C8 0B 44 23 50 03 E6 11
 (012.549632)  can0  100   [8]  CC 0B 4C 23 50 03 E7 1C
 (012.559632)  can0  100   [8]  D0 0B 50 23 50 03 E8 13
 (012.569633)  can0  100   [8]  D4 0B 58 23 50 03 E9 1E
 (012.579610)  can0  100   [8]  D8 0B 60 23 50 03 EA 29
 (012.589613)  can0  100   [8]  DC 0B 68 23 50 03 EB 24
 (012.589840)  can0  101   [8]  E8 35 45 C8 00 00 7D 2D
 (012.599636)  can0  100   [8]  E0 0B 70 23 50 03 EC 07
 (012.609635)  can0  100   [8]  E4 0B 74 23 50 03 ED 06
 (012.619631)  can0  100   [8]  E8 0B 7C 23 50 03 EE 01
 (012.629635)  can0  100   [8]  EC 0B 84 23 50 03 EF FC
 (012.639627)  can0  100   [8]  F0 0B 8C 23 50 03 F0 F7
 (012.649625)  can0  100   [8]  F4 0B 94 23 50 03 F1 EA
 (012.659647)  can0  100   [8]  F8 0B 98 23 50 03 F2 E9
 (012.669633)  can0  100   [8]  FC 0B A0 23 50 03 F3 D4
 (012.679618)  can0  100   [8]  00 0C A8 23 50 03 F4 20
 (012.689633)  can0  100   [8]  04 0C B0 23 50 03 F5 3D
 (012.689834)  can0  101   [8]  E8 35 45 C8 00 00 7E 2E
 (012.699632)  can0  100   [8]  08 0C B8 23 50 03 F6 3A
 (012.709630)  can0  100   [8]  0C 0C BC 23 50 03 F7 3B
 (012.719631)  can0  100   [8]  10 0C C4 23 50 03 F8 50
 (012.729627)  can0  100   [8]  14 0C CC 23 50 03 F9 5D
 (012.739626)  can0  100   [8]  18 0C D4 23 50 03 FA 4A
 (012.749623)  can0  100   [8]  1C 0C DC 23 50 03 FB 47
 (012.759629)  can0  100   [8]  20 0C E0 23 50 03 FC 40
 (012.769628)  can0  100   [8]  24 0C E8 23 50 03 FD 4D
 (012.779610)  can0  100   [8]  28 0C F0 23 50 03 FE 5A
 (012.789634)  can0  100   [8]  2C 0C F8 23 50 03 FF 57
 (012.789837)  can0  101   [8]  E8 35 45 C8 00 00 7F 2F
 (012.799633)  can0  100   [8]  30 0C 00 24 50 03 00 4B
 (012.809629)  can0  100   [8]  34 0C 04 24 50 03 01 4A
 (012.819629)  can0  100   [8]  38 0C 0C 24 50 03 02 4D
 (012.829616)  can0  100   [8]  3C 0C 14 24 50 03 03 50
 (012.839631)  can0  100   [8]  40 0C 1C 24 50 03 04 23
 (012.849624)  can0  100   [8]  44 0C 24 24 50 03 05 1E
 (012.859621)  can0  100   [8]  48 0C 28 24 50 03 06 1D
 (012.869627)  can0  100   [8]  4C 0C 30 24 50 03 07 00
 (012.879603)  can0  100   [8]  50 0C 38 24 50 03 08 1B
 (012.889618)  can0  100   [8]  54 0C 40 24 50 03 09 66
 (012.889826)  can0  101   [8]  E8 35 45 C8 00 00 80 D0
 (012.899625)  can0  100   [8]  58 0C 48 24 50 03 0A 61
 (012.909621)  can0  100   [8]  5C 0C 4C 24 50 03 0B 60
 (012.919619)  can0  100   [8]  60 0C 54 24 50 03 0C 43
 (012.929622)  can0  100   [8]  64 0C 5C 24 50 03 0D 4E
 (012.939615)  can0  100   [8]  68 0C 64 24 50 03 0E 79
 (012.949617)  can0  100   [8]  6C 0C 6C 24 50 03 0F 74
 (012.959620)  can0  100   [8]  70 0C 70 24 50 03 10 6B
 (012.969624)  can0  100   [8]  74 0C 78 24 50 03 11 66
 (012.979600)  can0  100   [8]  78 0C 80 24 50 03 12 91
 (012.989620)  can0  100   [8]  7C 0C 88 24 50 03 13 9C
 (012.989824)  can0  101   [8]  E8 35 45 C8 00 00 81 D1
 (012.990066)  can0  102   [8]  87 D6 12 00 02 00 0C 4D
 (012.999622)  can0  100   [8]  80 0C 90 24 50 03 14 7F
 (013.009615)  can0  100   [8]  84 0C 94 24 50 03 15 7E
 (013.019617)  can0  100   [8]  88 0C 9C 24 50 03 16 79
 (013.029618)  can0  100   [8]  8C 0C A4 24 50 03 17 44
 (013.039614)  can0  100   [8]  90 0C AC 24 50 03 18 5F
 (013.049618)  can0  100   [8]  94 0C B4 24 50 03 19 42
 (013.059618)  can0  100   [8]  98 0C B8 24 50 03 1A 41
 (013.069599)  can0  100   [8]  9C 0C C0 24 50 03 1B 3C
 (013.079604)  can0  100   [8]  A0 0C C8 24 50 03 1C 0F
 (013.089619)  can0  100   [8]  A4 0C D0 24 50 03 1D 12
 (013.089826)  can0  101   [8]  E8 35 46 C8 00 00 82 D1
 (013.099618)  can0  100   [8]  A8 0C D8 24 50 03 1E 15
 (013.109615)  can0  100   [8]  AC 0C DC 24 50 03 1F 14
 (013.119618)  can0  100   [8]  B0 0C E4 24 50 03 20 0F
 (013.129631)  can0  100   [8]  B4 0C EC 24 50 03 21 02
 (013.139613)  can0  100   [8]  B8 0C F4 24 50 03 22 15
 (013.149617)  can0  100   [8]  BC 0C FC 24 50 03 23 18
 (013.159591)  can0  100   [8]  C0 0C 00 25 50 03 24 9E
 (013.169634)  can0  100   [8]  C4 0C 08 25 50 03 25 93
 (013.179606)  can0  100   [8]  C8 0C 10 25 50 03 26 84
 (013.189629)  can0  100   [8]  CC 0C 18 25 50 03 27 89
 (013.189830)  can0  101   [8]  E8 35 46 C8 00 00 83 D0
 (013.199617)  can0  100   [8]  D0 0C 20 25 50 03 28 A2
 (013.209594)  can0  100   [8]  D4 0C 24 25 50 03 29 A3
 (013.219618)  can0  100   [8]  D8 0C 2C 25 50 03 2A A4
 (013.229616)  can0  100   [8]  DC 0C 34 25 50 03 2B B9
 (013.239609)  can0  100   [8]  E0 0C 3C 25 50 03 2C 8A
 (013.249609)  can0  100   [8]  E4 0C 44 25 50 03 2D F7
 (013.259607)  can0  100   [8]  E8 0C 48 25 50 03 2E F4
 (013.269614)  can0  100   [8]  EC 0C 50 25 50 03 2F E9
 (013.279596)  can0  100   [8]  F0 0C 58 25 50 03 30 E2
 (013.289616)  can0  100   [8]  F4 0C 60 25 50 03 31 DF
 (013.289818)  can0  101   [8]  E8 35 46 C8 00 00 84 D7
 (013.299617)  can0  100   [8]  F8 0C 68 25 50 03 32 D8
 (013.309603)  can0  100   [8]  FC 0C 6C 25 50 03 33 D9
 (013.319601)  can0  100   [8]  00 0D 74 25 50 03 34 3B
 (013.329607)  can0  100   [8]  04 0D 7C 25 50 03 35 36
 (013.339625)  can0  100   [8]  08 0D 84 25 50 03 36 C1
 (013.349612)  can0  100   [8]  0C 0D 8C 25 50 03 37 CC
 (013.359608)  can0  100   [8]  10 0D 90 25 50 03 38 C3
 (013.369614)  can0  100   [8]  14 0D 98 25 50 03 39 CE
 (013.379617)  can0  100   [8]  18 0D A0 25 50 03 3A F9
 (013.389598)  can0  100   [8]  1C 0D A8 25 50 03 3B F4
 (013.389820)  can0  101   [8]  E8 35 46 C8 00 00 85 D6
 (013.399618)  can0  100   [8]  20 0D B0 25 50 03 3C D7
 (013.409616)  can0  100   [8]  24 0D B4 25 50 03 3D D6
 (013.419609)  can0  100   [8]  28 0D BC 25 50 03 3E D1
 (013.429609)  can0  100   [8]  2C 0D C4 25 50 03 3F AC
 (013.439612)  can0  100   [8]  30 0D CC 25 50 03 40 C7
 (013.449608)  can0  100   [8]  34 0D D4 25 50 03 41 DA
 (013.459605)  can0  100   [8]  38 0D D8 25 50 03 42 D9
 (013.469616)  can0  100   [8]  3C 0D E0 25 50 03 43 E4
 (013.479610)  can0  100   [8]  40 0D E8 25 50 03 44 97
 (013.489607)  can0  100   [8]  44 0D F0 25 50 03 45 8A
 (013.489812)  can0  101   [8]  E8 35 46 C8 00 00 86 D5
 (013.499612)  can0  100   [8]  48 0D F8 25 50 03 46 8D
 (013.509606)  can0  100   [8]  4C 0D FC 25 50 03 47 8C
 (013.519605)  can0  100   [8]  50 0D 04 26 50 03 48 64
 (013.529605)  can0  100   [8]  54 0D 0C 26 50 03 49 69
 (013.539607)  can0  100   [8]  58 0D 14 26 50 03 4A 7E
 (013.549583)  can0  100   [8]  5C 0D 1C 26 50 03 4B 73
 (013.559606)  can0  100   [8]  60 0D 20 26 50 03 4C 74
 (013.569604)  can0  100   [8]  64 0D 28 26 50 03 4D 79
 (013.579611)  can0  100   [8]  68 0D 30 26 50 03 4E 6E
 (013.589599)  can0  100   [8]  6C 0D 38 26 50 03 4F 63
 (013.589806)  can0  101   [8]  E8 35 46 C8 00 00 87 D4
 (013.599610)  can0  100   [8]  70 0D 40 26 50 03 50 18
 (013.609603)  can0  100   [8]  74 0D 44 26 50 03 51 19
 (013.619608)  can0  100   [8]  78 0D 4C 26 50 03 52 1E
 (013.629585)  can0  100   [8]  7C 0D 54 26 50 03 53 03
 (013.639603)  can0  100   [8]  80 0D 5C 26 50 03 54 F0
 (013.649602)  can0  100   [8]  84 0D 64 26 50 03 55 CD
 (013.659599)  can0  100   [8]  88 0D 68 26 50 03 56 CE
 (013.669599)  can0  100   [8]  8C 0D 70 26 50 03 57 D3
 (013.679599)  can0  100   [8]  90 0D 78 26 50 03 58 C8
 (013.689602)  can0  100   [8]  94 0D 80 26 50 03 59 35
 (013.689805)  can0  101   [8]  E8 35 46 C8 00 00 88 DB
 (013.699600)  can0  100   [8]  98 0D 88 26 50 03 5A 32
 (013.709598)  can0  100   [8]  9C 0D 8C 26 50 03 5B 33
 (013.719599)  can0  100   [8]  A0 0D 94 26 50 03 5C 10
 (013.729598)  can0  100   [8]  A4 0D 9C 26 50 03 5D 1D
 (013.739618)  can0  100   [8]  A8 0D A4 26 50 03 5E 2A
 (013.749597)  can0  100   [8]  AC 0D AC 26 50 03 5F 27
 (013.759599)  can0  100   [8]  B0 0D B0 26 50 03 60 18
 (013.769596)  can0  100   [8]  B4 0D B8 26 50 03 61 15
 (013.779597)  can0  100   [8]  B8 0D C0 26 50 03 62 62
 (013.789581)  can0  100   [8]  BC 0D C8 26 50 03 63 6F
 (013.789803)  can0  101   [8]  E8 35 46 C8 00 00 89 DA
 (013.799607)  can0  100   [8]  C0 0D D0 26 50 03 64 0C
 (013.809591)  can0  100   [8]  C4 0D D4 26 50 03 65 0D
 (013.819600)  can0  100   [8]  C8 0D DC 26 50 03 66 0A
 (013.829595)  can0  100   [8]  CC 0D E4 26 50 03 67 37
 (013.839594)  can0  100   [8]  D0 0D EC 26 50 03 68 2C
 (013.849594)  can0  100   [8]  D4 0D F4 26 50 03 69 31
 (013.859598)  can0  100   [8]  D8 0D F8 26 50 03 6A 32
 (013.869575)  can0  100   [8]  DC 0D 00 27 50 03 6B CE
 (013.879594)  can0  100   [8]  E0 0D 08 27 50 03 6C FD
 (013.889593)  can0  100   [8]  E4 0D 10 27 50 03 6D E0
 (013.889796)  can0  101   [8]  E8 35 46 C8 00 00 8A D9
 (013.899595)  can0  100   [8]  E8 0D 18 27 50 03 6E E7
 (013.909591)  can0  100   [8]  EC 0D 1C 27 50 03 6F E6
 (013.919593)  can0  100   [8]  F0 0D 24 27 50 03 70 DD
 (013.929593)  can0  100   [8]  F4 0D 2C 27 50 03 71 D0
 (013.939593)  can0  100   [8]  F8 0D 34 27 50 03 72 C7
 (013.949594)  can0  100   [8]  FC 0D 3C 27 50 03 73 CA
 (013.959594)  can0  100   [8]  00 0E 40 27 50 03 74 4E
 (013.969589)  can0  100   [8]  04 0E 48 27 50 03 75 43
 (013.979593)  can0  100   [8]  08 0E 50 27 50 03 76 54
 (013.989591)  can0  100   [8]  0C 0E 58 27 50 03 77 59
 (013.989797)  can0  101   [8]  E8 35 46 C8 00 00 8B D8
 (013.990036)  can0  102   [8]  87 D6 12 00 02 00 0D 4C
 (013.999602)  can0  100   [8]  10 0E 60 27 50 03 78 72
 (014.009589)  can0  100   [8]  14 0E 64 27 50 03 79 73
 (014.019591)  can0  100   [8]  18 0E 6C 27 50 03 7A 74
 (014.029593)  can0  100   [8]  1C 0E 74 27 50 03 7B 69
 (014.039599)  can0  100   [8]  20 0E 7C 27 50 03 7C 5A
 (014.049593)  can0  100   [8]  24 0E 84 27 50 03 7D A7
 (014.059594)  can0  100   [8]  28 0E 88 27 50 03 7E A4
 (014.069595)  can0  100   [8]  2C 0E 90 27 50 03 7F B9
 (014.079591)  can0  100   [8]  30 0E 98 27 50 03 80 52
 (014.089594)  can0  100   [8]  34 0E A0 27 50 03 81 6F
 (014.089797)  can0  101   [8]  E8 35 47 C8 00 00 8C DE
 (014.099596)  can0  100   [8]  38 0E A8 27 50 03 82 68
 (014.109592)  can0  100   [8]  3C 0E AC 27 50 03 83 69
 (014.119590)  can0  100   [8]  40 0E B4 27 50 03 84 0A
 (014.129590)  can0  100   [8]  44 0E BC 27 50 03 85 07
 (014.139590)  can0  100   [8]  48 0E C4 27 50 03 86 70
 (014.149592)  can0  100   [8]  4C 0E CC 27 50 03 87 7D
 (014.159583)  can0  100   [8]  50 0E D0 27 50 03 88 72
 (014.169588)  can0  100   [8]  54 0E D8 27 50 03 89 7F
 (014.179594)  can0  100   [8]  58 0E E0 27 50 03 8A 48
 (014.189590)  can0  100   [8]  5C 0E E8 27 50 03 8B 45
 (014.189790)  can0  101   [8]  E8 35 47 C8 00 00 8D DF
 (014.199612)  can0  100   [8]  60 0E F0 27 50 03 8C 66
 (014.209593)  can0  100   [8]  64 0E F4 27 50 03 8D 67
 (014.219591)  can0  100   [8]  68 0E FC 27 50 03 8E 60
 (014.229586)  can0  100   [8]  6C 0E 04 28 50 03 8F 92
 (014.239585)  can0  100   [8]  70 0E 0C 28 50 03 90 99
 (014.249584)  can0  100   [8]  74 0E 14 28 50 03 91 84
 (014.259584)  can0  100   [8]  78 0E 18 28 50 03 92 87
 (014.269584)  can0  100   [8]  7C 0E 20 28 50 03 93 BA
 (014.279588)  can0  100   [8]  80 0E 28 28 50 03 94 49
 (014.289584)  can0  100   [8]  84 0E 30 28 50 03 95 54
 (014.289791)  can0  101   [8]  E8 35 47 C8 00 00 8E DC
 (014.299585)  can0  100   [8]  88 0E 38 28 50 03 96 53
 (014.309583)  can0  100   [8]  8C 0E 3C 28 50 03 97 52
 (014.319584)  can0  100   [8]  90 0E 44 28 50 03 98 39
 (014.329582)  can0  100   [8]  94 0E 4C 28 50 03 99 34
 (014.339577)  can0  100   [8]  98 0E 54 28 50 03 9A 23
 (014.349557)  can0  100   [8]  9C 0E 5C 28 50 03 9B 2E
 (014.359585)  can0  100   [8]  A0 0E 60 28 50 03 9C 29
 (014.369579)  can0  100   [8]  A4 0E 68 28 50 03 9D 24
 (014.379579)  can0  100   [8]  A8 0E 70 28 50 03 9E 33
 (014.389585)  can0  100   [8]  AC 0E 78 28 50 03 9F 3E
 (014.389794)  can0  101   [8]  E8 35 47 C8 00 00 8F DD
 (014.399584)  can0  100   [8]  B0 0E 80 28 50 03 A0 E5
 (014.409579)  can0  100   [8]  B4 0E 84 28 50 03 A1 E4
 (014.419578)  can0  100   [8]  B8 0E 8C 28 50 03 A2 E3
 (014.429577)  can0  100   [8]  BC 0E 94 28 50 03 A3 FE
 (014.439582)  can0  100   [8]  C0 0E 9C 28 50 03 A4 8D
 (014.449575)  can0  100   [8]  C4 0E A4 28 50 03 A5 B0
 (014.459581)  can0  100   [8]  C8 0E A8 28 50 03 A6 B3
 (014.469575)  can0  100   [8]  CC 0E B0 28 50 03 A7 AE
 (014.479574)  can0  100   [8]  D0 0E B8 28 50 03 A8 B5
 (014.489577)  can0  100   [8]  D4 0E C0 28 50 03 A9 C8
 (014.489783)  can0  101   [8]  E8 35 47 C8 00 00 90 C2
 (014.499580)  can0  100   [8]  D8 0E C8 28 50 03 AA CF
 (014.509579)  can0  100   [8]  DC 0E CC 28 50 03 AB CE
 (014.519578)  can0  100   [8]  E0 0E D4 28 50 03 AC ED
 (014.529578)  can0  100   [8]  E4 0E DC 28 50 03 AD E0
 (014.539574)  can0  100   [8]  E8 0E E4 28 50 03 AE D7
 (014.549576)  can0  100   [8]  EC 0E EC 28 50 03 AF DA
 (014.559574)  can0  100   [8]  F0 0E F0 28 50 03 B0 C5
 (014.569582)  can0  100   [8]  F4 0E F8 28 50 03 B1 C8
 (014.579578)  can0  100   [8]  F8 0E 00 29 50 03 B2 3E
 (014.589562)  can0  100   [8]  FC 0E 08 29 50 03 B3 33
 (014.589785)  can0  101   [8]  E8 35 47 C8 00 00 91 C3
 (014.599582)  can0  100   [8]  00 0F 10 29 50 03 B4 D1
 (014.609574)  can0  100   [8]  04 0F 14 29 50 03 B5 D0
 (014.619584)  can0  100   [8]  08 0F 1C 29 50 03 B6 D7
 (014.629576)  can0  100   [8]  0C 0F 24 29 50 03 B7 EA
 (014.639574)  can0  100   [8]  10 0F 2C 29 50 03 B8 F1
 (014.649573)  can0  100   [8]  14 0F 34 29 50 03 B9 EC
 (014.659571)  can0  100   [8]  18 0F 38 29 50 03 BA EF
 (014.669553)  can0  100   [8]  1C 0F 40 29 50 03 BB 92
 (014.679577)  can0  100   [8]  20 0F 48 29 50 03 BC A1
 (014.689576)  can0  100   [8]  24 0F 50 29 50 03 BD BC
 (014.689778)  can0  101   [8]  E8 35 47 C8 00 00 92 C0
 (014.699580)  can0  100   [8]  28 0F 58 29 50 03 BE BB
 (014.709573)  can0  100   [8]  2C 0F 5C 29 50 03 BF BA
 (014.719581)  can0  100   [8]  30 0F 64 29 50 03 C0 E1
 (014.729576)  can0  100   [8]  34 0F 6C 29 50 03 C1 EC
 (014.739584)  can0  100   [8]  38 0F 74 29 50 03 C2 FB
 (014.749585)  can0  100   [8]  3C 0F 7C 29 50 03 C3 F6
 (014.759586)  can0  100   [8]  40 0F 80 29 50 03 C4 71
 (014.769575)  can0  100   [8]  44 0F 88 29 50 03 C5 7C
 (014.779577)  can0  100   [8]  48 0F 90 29 50 03 C6 6B
 (014.789572)  can0  100   [8]  4C 0F 98 29 50 03 C7 66
 (014.789780)  can0  101   [8]  E8 35 47 C8 00 00 93 C1
 (014.799575)  can0  100   [8]  50 0F A0 29 50 03 C8 4D
 (014.809567)  can0  100   [8]  54 0F A4 29 50 03 C9 4C
 (014.819575)  can0  100   [8]  58 0F AC 29 50 03 CA 4B
 (014.829552)  can0  100   [8]  5C 0F B4 29 50 03 CB 56
 (014.839576)  can0  100   [8]  60 0F BC 29 50 03 CC 65
 (014.849568)  can0  100   [8]  64 0F C4 29 50 03 CD 18
 (014.859572)  can0  100   [8]  68 0F C8 29 50 03 CE 1B
 (014.869573)  can0  100   [8]  6C 0F D0 29 50 03 CF 06
 (014.879571)  can0  100   [8]  70 0F D8 29 50 03 D0 0D
 (014.889567)  can0  100   [8]  74 0F E0 29 50 03 D1 30
 (014.889772)  can0  101   [8]  E8 35 47 C8 00 00 94 C6
 (014.899574)  can0  100   [8]  78 0F E8 29 50 03 D2 37
 (014.909552)  can0  100   [8]  7C 0F EC 29 50 03 D3 36
 (014.919574)  can0  100   [8]  80 0F F4 29 50 03 D4 D5
 (014.929573)  can0  100   [8]  84 0F FC 29 50 03 D5 D8
 (014.939569)  can0  100   [8]  88 0F 04 2A 50 03 D6 2C
 (014.949569)  can0  100   [8]  8C 0F 0C 2A 50 03 D7 21
 (014.959571)  can0  100   [8]  90 0F 10 2A 50 03 D8 2E
 (014.969570)  can0  100   [8]  94 0F 18 2A 50 03 D9 23
 (014.979567)  can0  100   [8]  98 0F 20 2A 50 03 DA 14
 (014.989563)  can0  100   [8]  9C 0F 28 2A 50 03 DB 19
 (014.989774)  can0  101   [8]  E8 35 47 C8 00 00 95 C7
 (014.990011)  can0  102   [8]  87 D6 12 00 02 00 0E 4F
 (014.999569)  can0  100   [8]  A0 0F 30 2A 50 03 DC 3A
 (015.009561)  can0  100   [8]  A4 0F B4 1D 50 04 DD 8B
 (015.019566)  can0  100   [8]  A8 0F B8 1D 50 04 DE 88
 (015.029565)  can0  100   [8]  AC 0F BC 1D 50 04 DF 89
 (015.039564)  can0  100   [8]  B0 0F C0 1D 50 04 E0 D6
 (015.049561)  can0  100   [8]  B4 0F C4 1D 50 04 E1 D7
 (015.059556)  can0  100   [8]  B8 0F C8 1D 50 04 E2 D4
 (015.069562)  can0  100   [8]  BC 0F CC 1D 50 04 E3 D5
 (015.079565)  can0  100   [8]  C0 0F D0 1D 50 04 E4 B2
 (015.089536)  can0  100   [8]  C4 0F D4 1D 50 04 E5 B3
 (015.089763)  can0  101   [8]  E8 35 48 C8 00 00 96 CB
 (015.099565)  can0  100   [8]  C8 0F D8 1D 50 04 E6 B0
 (015.109562)  can0  100   [8]  CC 0F DC 1D 50 04 E7 B1
 (015.119558)  can0  100   [8]  D0 0F E0 1D 50 04 E8 9E
 (015.129567)  can0  100   [8]  D4 0F E4 1D 50 04 E9 9F
 (015.139579)  can0  100   [8]  D8 0F E8 1D 50 04 EA 9C
 (015.149539)  can0  100   [8]  DC 0F EC 1D 50 04 EB 9D
 (015.159566)  can0  100   [8]  E0 0F F0 1D 50 04 EC BA
 (015.169564)  can0  100   [8]  E4 0F F4 1D 50 04 ED BB
 (015.179566)  can0  100   [8]  E8 0F F8 1D 50 04 EE B8
 (015.189549)  can0  100   [8]  EC 0F FC 1D 50 04 EF B9
 (015.189777)  can0  101   [8]  E8 35 48 C8 00 00 97 CA
 (015.199568)  can0  100   [8]  F0 0F 00 1E 50 04 F0 45
 (015.209569)  can0  100   [8]  F4 0F 04 1E 50 04 F1 44
 (015.219562)  can0  100   [8]  F8 0F 08 1E 50 04 F2 47
 (015.229563)  can0  100   [8]  FC 0F 0C 1E 50 04 F3 46
 (015.239561)  can0  100   [8]  00 10 10 1E 50 04 F4 BE
 (015.249561)  can0  100   [8]  04 10 14 1E 50 04 F5 BF
 (015.259560)  can0  100   [8]  08 10 18 1E 50 04 F6 BC
 (015.269560)  can0  100   [8]  0C 10 1C 1E 50 04 F7 BD
 (015.279561)  can0  100   [8]  10 10 20 1E 50 04 F8 92
 (015.289540)  can0  100   [8]  14 10 24 1E 50 04 F9 93
 (015.289762)  can0  101   [8]  E8 35 48 C8 00 00 98 C5
 (015.299562)  can0  100   [8]  18 10 28 1E 50 04 FA 90
 (015.309566)  can0  100   [8]  1C 10 2C 1E 50 04 FB 91
 (015.319559)  can0  100   [8]  20 10 30 1E 50 04 FC B6
 (015.329560)  can0  100   [8]  24 10 34 1E 50 04 FD B7
 (015.339557)  can0  100   [8]  28 10 38 1E 50 04 FE B4
 (015.349557)  can0  100   [8]  2C 10 3C 1E 50 04 FF B5
 (015.359565)  can0  100   [8]  30 10 40 1E 50 04 00 2A
 (015.369556)  can0  100   [8]  34 10 44 1E 50 04 01 2B
 (015.379561)  can0  100   [8]  38 10 48 1E 50 04 02 28
 (015.389541)  can0  100   [8]  3C 10 4C 1E 50 04 03 29
 (015.389765)  can0  101   [8]  E8 35 48 C8 00 00 99 C4
 (015.399565)  can0  100   [8]  40 10 50 1E 50 04 04 4E
 (015.409563)  can0  100   [8]  44 10 54 1E 50 04 05 4F
 (015.419554)  can0  100   [8]  48 10 58 1E 50 04 06 4C
 (015.429560)  can0  100   [8]  4C 10 5C 1E 50 04 07 4D
 (015.439558)  can0  100   [8]  50 10 60 1E 50 04 08 62
 (015.449556)  can0  100   [8]  54 10 64 1E 50 04 09 63
 (015.459553)  can0  100   [8]  58 10 68 1E 50 04 0A 60
 (015.469554)  can0  100   [8]  5C 10 6C 1E 50 04 0B 61
 (015.479553)  can0  100   [8]  60 10 70 1E 50 04 0C 46
 (015.489537)  can0  100   [8]  64 10 74 1E 50 04 0D 47
 (015.489760)  can0  101   [8]  E8 35 48 C8 00 00 9A C7
 (015.499554)  can0  100   [8]  68 10 78 1E 50 04 0E 44
 (015.509557)  can0  100   [8]  6C 10 7C 1E 50 04 0F 45
 (015.519555)  can0  100   [8]  70 10 80 1E 50 04 10 BA
 (015.529554)  can0  100   [8]  74 10 84 1E 50 04 11 BB
 (015.539549)  can0  100   [8]  78 10 88 1E 50 04 12 B8
 (015.549555)  can0  100   [8]  7C 10 8C 1E 50 04 13 B9
 (015.559549)  can0  100   [8]  80 10 90 1E 50 04 14 5E
 (015.569548)  can0  100   [8]  84 10 94 1E 50 04 15 5F
 (015.579548)  can0  100   [8]  88 10 98 1E 50 04 16 5C
 (015.589528)  can0  100   [8]  8C 10 9C 1E 50 04 17 5D
 (015.589756)  can0  101   [8]  E8 35 48 C8 00 00 9B C6
 (015.599553)  can0  100   [8]  90 10 A0 1E 50 04 18 72
 (015.609569)  can0  100   [8]  94 10 A4 1E 50 04 19 73
 (015.619551)  can0  100   [8]  98 10 A8 1E 50 04 1A 70
 (015.629525)  can0  100   [8]  9C 10 AC 1E 50 04 1B 71
 (015.639546)  can0  100   [8]  A0 10 B0 1E 50 04 1C 56
 (015.649548)  can0  100   [8]  A4 10 B4 1E 50 04 1D 57
 (015.659553)  can0  100   [8]  A8 10 B8 1E 50 04 1E 54
 (015.669547)  can0  100   [8]  AC 10 BC 1E 50 04 1F 55
 (015.679546)  can0  100   [8]  B0 10 C0 1E 50 04 20 0A
 (015.689525)  can0  100   [8]  B4 10 C4 1E 50 04 21 0B
 (015.689753)  can0  101   [8]  E8 35 48 C8 00 00 9C C1
 (015.699549)  can0  100   [8]  B8 10 C8 1E 50 04 22 08
 (015.709526)  can0  100   [8]  BC 10 CC 1E 50 04 23 09
 (015.719539)  can0  100   [8]  C0 10 D0 1E 50 04 24 6E
 (015.729548)  can0  100   [8]  C4 10 D4 1E 50 04 25 6F
 (015.739543)  can0  100   [8]  C8 10 D8 1E 50 04 26 6C
 (015.749543)  can0  100   [8]  CC 10 DC 1E 50 04 27 6D
 (015.759536)  can0  100   [8]  D0 10 E0 1E 50 04 28 42
 (015.769538)  can0  100   [8]  D4 10 E4 1E 50 04 29 43
 (015.779539)  can0  100   [8]  D8 10 E8 1E 50 04 2A 40
 (015.789523)  can0  100   [8]  DC 10 EC 1E 50 04 2B 41
 (015.789752)  can0  101   [8]  E8 35 48 C8 00 00 9D C0
 (015.799547)  can0  100   [8]  E0 10 F0 1E 50 04 2C 66
 (015.809540)  can0  100   [8]  E4 10 F4 1E 50 04 2D 67
 (015.819542)  can0  100   [8]  E8 10 F8 1E 50 04 2E 64
 (015.829547)  can0  100   [8]  EC 10 FC 1E 50 04 2F 65
 (015.839541)  can0  100   [8]  F0 10 00 1F 50 04 30 9B
 (015.849541)  can0  100   [8]  F4 10 04 1F 50 04 31 9A
 (015.859549)  can0  100   [8]  F8 10 08 1F 50 04 32 99
 (015.869539)  can0  100   [8]  FC 10 0C 1F 50 04 33 98
 (015.879543)  can0  100   [8]  00 11 10 1F 50 04 34 7E
 (015.889519)  can0  100   [8]  04 11 14 1F 50 04 35 7F
 (015.889745)  can0  101   [8]  E8 35 48 C8 00 00 9E C3
 (015.899545)  can0  100   [8]  08 11 18 1F 50 04 36 7C
 (015.909547)  can0  100   [8]  0C 11 1C 1F 50 04 37 7D
 (015.919541)  can0  100   [8]  10 11 20 1F 50 04 38 52
 (015.929538)  can0  100   [8]  14 11 24 1F 50 04 39 53
 (015.939538)  can0  100   [8]  18 11 28 1F 50 04 3A 50
 (015.949516)  can0  100   [8]  1C 11 2C 1F 50 04 3B 51
 (015.959542)  can0  100   [8]  20 11 30 1F 50 04 3C 76
 (015.969540)  can0  100   [8]  24 11 34 1F 50 04 3D 77
 (015.979541)  can0  100   [8]  28 11 38 1F 50 04 3E 74
 (015.989518)  can0  100   [8]  2C 11 3C 1F 50 04 3F 75
 (015.989744)  can0  101   [8]  E8 35 48 C8 00 00 9F C2
 (015.989986)  can0  102   [8]  87 D6 12 00 02 00 0F 4E
 (015.999541)  can0  100   [8]  30 11 40 1F 50 04 40 6A
 (016.009538)  can0  100   [8]  34 11 44 1F 50 04 41 6B
 (016.019540)  can0  100   [8]  38 11 48 1F 50 04 42 68
 (016.029541)  can0  100   [8]  3C 11 4C 1F 50 04 43 69
 (016.039538)  can0  100   [8]  40 11 50 1F 50 04 44 0E
 (016.049532)  can0  100   [8]  44 11 54 1F 50 04 45 0F
 (016.059533)  can0  100   [8]  48 11 58 1F 50 04 46 0C
 (016.069529)  can0  100   [8]  4C 11 5C 1F 50 04 47 0D
 (016.079552)  can0  100   [8]  50 11 60 1F 50 04 48 22
